! Touchstone file exported from HFSS 2018.2.0
!        File:           C:/Users/10024/OneDrive - The University of Nottingham Ningbo China/Year 4/Final Year Project/HFSS project/Passive_Resonator_Antenna.aedt
!        Generated:      5:10:34 下午  3月 11, 2022
!        Design:         SMA_Thru
!        Project:        Passive_Resonator_Antenna
!        Setup:          Setup1
!        Solution:       Sweep
!
! Variables:
!        MW = 1.992mm
!        ThruL = 16mm
!        g = 0.2mm
!        subH = 0.8mm
!        subX = 20mm
!        subY = 26mm
!        tapW = 1.992mm
!
# GHZ S MA R 50.000000
! Modal data exported
! Port[1] = SMA_CONNECTOR1_1:1
! Port[2] = SMA_CONNECTOR2_1:1
1                0.0206353380543021 -161.980272432264 0.997872281091198 -71.509571072716 0.997872281091198 -71.509571072716 0.0206511962640119 -158.979207955561 
! Gamma         !               0.0151858380091464 30.3716836112162 0.0151858380091249 30.3716836111819 
! Port Impedance50               0                50               0                

1.02             0.0208069204310775 -163.232326073926 0.997809829763642 -72.9392644381997 0.997809829763643 -72.9392644381997 0.0208239420648825 -160.406917014113 
! Gamma         !               0.0154975606210694 30.9791172695424 0.0154975606209663 30.9791172695329 
! Port Impedance50               0                50               0                

1.04             0.0209640685717842 -164.487876715491 0.997746715348496 -74.3689462532455 0.997746715348496 -74.3689462532455 0.0209820241050403 -161.834431292716 
! Gamma         !               0.01580781309671 31.5865509305587 0.0158078130965363 31.5865509305707 
! Port Impedance50               0                50               0                

1.06             0.0211065409729767 -165.746442371879 0.997682952886717 -75.7986172136609 0.997682952886717 -75.7986172136609 0.0211252076530258 -163.26156857649 
! Gamma         !               0.0161167926226265 32.193984593873  0.0161167926223921 32.1939845939038 
! Port Impedance50               0                50               0                

1.08             0.0212341083067909 -167.007547925458 0.997618557163181 -77.2282780102957 0.997618557163182 -77.2282780102957 0.0212532693865194 -164.688138707918 
! Gamma         !               0.0164246726594071 32.8014182591477 0.016424672659121 32.801418259195  
! Port Impedance50               0                50               0                

1.1              0.0213465538745431 -168.27072333498 0.997553542745659 -78.6579293296438 0.99755354274566 -78.6579293296438 0.0213659978451527 -166.113943610353 
! Gamma         !               0.0167316057621215 33.4088519260896 0.0167316057617921 33.4088519261511 
! Port Impedance50               0                50               0                

1.12             0.0214436740267384 -169.535501938217 0.997487924020536 -80.087571854759 0.997487924020536 -80.087571854759 0.0214631938466872 -167.538777263011 
! Gamma         !               0.0170377260469838 34.0162855944457 0.0170377260466186 34.0162855945195 
! Port Impedance50               0                50               0                

1.14             0.0215252785474911 -170.801418819502 0.997421715224655 -81.5172062664563 0.997421715224656 -81.5172062664563 0.0215446708648619 -168.96242562173 
! Gamma         !               0.0173431513529178 34.6237192639968 0.0173431513525237 34.623719264081  
! Port Impedance50               0                50               0                

1.16             0.0215911910016782 -172.068009214852 0.997354930472774 -82.946833244766 0.997354930472776 -82.946833244766 0.0216102553674726 -170.384666478884 
! Gamma         !               0.0176479851392864 35.2311529345528 0.0176479851388695 35.2311529346457 
! Port Impedance50               0                50               0                

1.18             0.0216412490435782 -173.334806928303 0.997287583780124 -84.3764534706065 0.997287583780126 -84.3764534706065 0.0216597871135553 -171.805269254943 
! Gamma         !               0.0179523181548619 35.8385866059498 0.0179523181544277 35.8385866060502 
! Port Impedance50               0                50               0                

1.2              0.0216753046861387 -174.601342733436 0.997219689079696 -85.806067627637 0.997219689079698 -85.806067627637 0.0216931194088662 -173.223994713052 
! Gamma         !               0.018256229907953 36.4460202780458 0.0182562299075065 36.4460202781527 
! Port Impedance50               0                50               0                

1.22             0.0216932245303952 -175.867142733955 0.997151260233944 -87.2356764042492 0.997151260233945 -87.2356764042492 0.021710119319115 -174.640594586783 
! Gamma         !               0.0185597899632766 37.0534539507178 0.0185597899628222 37.0534539508296 
! Port Impedance50               0                50               0                

1.24             0.0216948899550114 -177.131726656503 0.997082311040642 -88.6652804956576 0.997082311040645 -88.6652804956576 0.021710667840792 -176.054811109806 
! Gamma         !               0.0188630590875235 37.6608876238607 0.0188630590870653 37.6608876239763 
! Port Impedance50               0                50               0                

1.26             0.021680197266309 -178.394606047664 0.997012855232798 -90.094880606044 0.9970128552328  -90.094880606044 0.0216946600297041 -177.466376434526 
! Gamma         !               0.0191660902625052 38.2683212973823 0.0191660902620465 38.2683212975012 
! Port Impedance50               0                50               0                

1.28             0.0216490578096148 -179.655282345288 0.996942906472498 -91.5244774507128 0.9969429064725  -91.5244774507128 0.0216620050877184 -178.875011924824 
! Gamma         !               0.0194689295821658 38.8757549712049 0.0194689295817097 38.8757549713262 
! Port Impedance50               0                50               0                

1.3              0.0216013980431851 179.086755208182 0.996872478338779 -92.9540717582131 0.99687247833878 -92.9540717582131 0.0216126264085105 179.719572694265 
! Gamma         !               0.0197716170475517 39.4831886452608 0.0197716170471007 39.4831886453839 
! Port Impedance50               0                50               0                

1.32             0.021537159576432 177.832031845918 0.996801584309597 -94.3836642723854 0.9968015843096  -94.3836642723853 0.0215464615834965 178.317680349803 
! Gamma         !               0.020074187271951 40.0906223194926 0.0200741872715075 40.0906223196163 
! Port Impedance50               0                50               0                

1.34             0.0214562991746733 176.581089790019 0.99673023773812 -95.8132557542892 0.996730237738122 -95.8132557542891 0.0214634623694423 176.919627820203 
! Gamma         !               0.0203766701068211 40.6980559938512 0.0203766701063871 40.6980559939754 
! Port Impedance50               0                50               0                

1.36             0.0213587887331094 175.334491042536 0.99665845182361 -97.2428469839731 0.996658451823613 -97.2428469839731 0.021363594619638 175.525747147395 
! Gamma         !               0.0206790911977548 41.3054896682948 0.020679091197332 41.3054896684188 
! Port Impedance50               0                50               0                

1.38             0.0212446152232836 174.092820504961 0.996586239577278 -98.6724387620474 0.99658623957728 -98.6724387620474 0.0212468381808331 174.136387293398 
! Gamma         !               0.0209814724785604 41.9129233427879 0.0209814724781499 41.9129233429113 
! Port Impedance50               0                50               0                

1.4              0.0211137806158251 172.856689484542 0.996513613783523 -100.102031911025 0.996513613783525 -100.102031911025 0.0211131867585521 172.751916078263 
! Gamma         !               0.0212838326105239 42.5203570173011 0.0212838326101271 42.5203570174236 
! Port Impedance50               0                50               0                

1.42             0.0209663017839081 171.626739654971 0.996440586957072 -101.531627276399 0.996440586957075 -101.531627276399 0.0209626477537376 171.37272244306  
! Gamma         !               0.0215861873730547 43.1277906918096 0.0215861873726724 43.1277906919306 
! Port Impedance50               0                50               0                

1.44             0.020802210392509 170.403647550248 0.996367171296584 -102.961225727424 0.996367171296587 -102.961225727424 0.0207952420741007 169.999219089551 
! Gamma         !               0.0218885500111554 43.7352243662923 0.0218885500107883 43.7352243664115 
! Port Impedance50               0                50               0                

1.46             0.020621552779298 169.188129684255 0.996293378635307 -104.390828157583 0.996293378635309 -104.390828157583 0.0206110039239369 168.631845558046 
! Gamma         !               0.0221909315445142 44.3426580407331 0.022190931544163 44.3426580408503 
! Port Impedance50               0                50               0                

1.48             0.0204243898338244 167.980948405289 0.996219220389471 -105.820435484713 0.996219220389474 -105.820435484713 0.0204099805766346 167.271071816841 
! Gamma         !               0.0224933410424476 44.9500917151181 0.0224933410421124 44.950091715233  
! Port Impedance50               0                50               0                

1.5              0.0202107968826391 166.782918615317 0.996144707505109 -107.250048650775 0.996144707505111 -107.250048650775 0.0201922321345922 165.917402451355 
! Gamma         !               0.0227957858684265 45.5575253894355 0.0227957858681077 45.557525389548  
! Port Impedance50               0                50               0                

1.52             0.0199808635890773 165.594915508891 0.996069850403989 -108.679668621263 0.996069850403991 -108.679668621263 0.0199578312817643 164.571381559126 
! Gamma         !               0.0230982718974929 46.1649590636781 0.0230982718971905 46.1649590637879 
! Port Impedance50               0                50               0                

1.54             0.0197346938777883 164.417883517631 0.995994658929437 -110.109296384227 0.995994658929439 -110.109296384227 0.0197068630347266 163.233598479265 
! Gamma         !               0.0234008037094981 46.772392737839  0.0234008037092122 46.772392737946  
! Port Impedance50               0                50               0                

1.56             0.0194724058956448 163.2528466845   0.995919142292769 -111.538932948935 0.995919142292771 -111.538932948935 0.0194394244988149 161.904694512843 
! Gamma         !               0.0237033847607591 47.3798264119134 0.0237033847604895 47.3798264120175 
! Port Impedance50               0                50               0                

1.58             0.0191941320226229 162.100920739707 0.995843309021071 -112.968579344145 0.995843309021073 -112.968579344145 0.019155624636815 160.5853708256   
! Gamma         !               0.0240060175364464 47.9872600858986 0.0240060175361929 47.9872600859996 
! Port Impedance50               0                50               0                

1.6              0.0189000189485916 160.963327209313 0.995767166907062 -114.398236616029 0.995767166907065 -114.398236616029 0.0188555840586399 159.276397768333 
! Gamma         !               0.0243087036857592 48.5946937597922 0.0243087036855215 48.5946937598901 
! Port Impedance50               0                50               0                

1.62             0.0185902278349134 159.841409962001 0.995690722961771 -115.827905825723 0.995690722961773 -115.827905825723 0.0185394348418062 157.978625905894 
! Gamma         !               0.0246114441417194 49.2021274335938 0.0246114441414971 49.2021274336885 
! Port Impedance50               0                50               0                

1.64             0.0182649345834349 158.736654692955 0.995613983370658 -117.257588046551 0.99561398337066 -117.257588046551 0.0182073203940612 156.692999116673 
! Gamma         !               0.0249142392272189 49.8095611073034 0.0249142392270117 49.8095611073949 
! Port Impedance50               0                50               0                

1.66             0.0179243302401508 157.650711962244 0.995536953453892 -118.687284360931 0.995536953453895 -118.687284360931 0.0178593953716041 155.420570215212 
! Gamma         !               0.0252170887487802 50.4169947809223 0.0252170887485876 50.4169947810103 
! Port Impedance50               0                50               0                

1.68             0.0175686215668235 156.585424555697 0.995459637631336 -120.116995856976 0.995459637631338 -120.116995856976 0.0174958256689851 154.162519667893 
! Gamma         !               0.0255199920793317 51.0244284544514 0.0255199920791533 51.0244284545362 
! Port Impedance50               0                50               0                

1.7              0.0171980318214909 155.54286012907  0.99538203939282 -121.54672362484 0.995382039392822 -121.54672362484 0.0171167885001656 152.920178124072 
! Gamma         !               0.025822948231167 51.6318621278933 0.0258229482310021 51.6318621279747 
! Port Impedance50               0                50               0                

1.72             0.016812801798891 154.525350344359 0.995304161274193 -122.976468752824 0.995304161274194 -122.976468752824 0.0167224725947919 151.695053684721 
! Gamma         !               0.0261259559201287 52.2392958012507 0.026125955919977 52.2392958013286 
! Port Impedance50               0                50               0                

1.74             0.0164131911948551 153.535538028359 0.995226004839581 -124.40623232328 0.995226004839582 -124.40623232328 0.0163130785396739 150.488865094298 
! Gamma         !               0.0264290136219554 52.8467294745261 0.0264290136218162 52.8467294746008 
! Port Impedance50               0                50               0                

1.76             0.0159994803759941 152.576434302166 0.995147570670239 -125.836015408348 0.99514757067024 -125.836015408348 0.0158888193035045 149.303582392647 
! Gamma         !               0.0267321196216257 53.4541631477224 0.0267321196214984 53.4541631477939 
! Port Impedance50               0                50               0                

1.78             0.0155719726589574 151.651488178987 0.995068858360282 -127.265819065573 0.995068858360284 -127.265819065573 0.0154499209937018 148.141477035565 
! Gamma         !               0.0270352720564538 54.0615968208439 0.0270352720563379 54.0615968209119 
! Port Impedance50               0                50               0                

1.8              0.015130997234232 150.764671851777 0.994989866519526 -128.695644333424 0.994989866519527 -128.695644333424 0.0149966239090608 147.005184132403 
! Gamma         !               0.02733846895361 54.6690304938928 0.0273384689535049 54.6690304939576 
! Port Impedance50               0                50               0                

1.82             0.0146769129109152 149.920585853952 0.994910592783598 -130.125492226774 0.9949105927836  -130.125492226774 0.0145291839723444 145.897780326044 
! Gamma         !               0.027641708262669 55.2764641668736 0.0276417082625741 55.2764641669352 
! Port Impedance50               0                50               0                

1.84             0.0142101129154507 149.1245895616   0.994831033831401 -131.555363732375 0.994831033831403 -131.555363732375 0.0140478746554667 144.822882054565 
! Gamma         !               0.0279449878837316 55.8838978397893 0.0279449878836463 55.8838978398476 
! Port Impedance50               0                50               0                

1.86             0.0137310310549593 148.382964234081 0.994751185409917 -132.985259804364 0.994751185409918 -132.985259804364 0.0135529895501881 143.784770634856 
! Gamma         !               0.0282483056916053 56.4913315126437 0.0282483056915291 56.491331512699  
! Port Impedance50               0                50               0                

1.88             0.0132401496636148 147.703118127246 0.994671042366301 -134.41518135985 0.994671042366302 -134.41518135985 0.0130448457948142 142.78855301947  
! Gamma         !               0.0285516595564827 57.0987651854406 0.0285516595564151 57.0987651854926 
! Port Impedance50               0                50               0                

1.9              0.0127380099014487 147.093846390204 0.994590598687115 -135.845129274621 0.994590598687115 -135.845129274621 0.0125237886508426 141.840370540616 
! Gamma         !               0.0288550473615094 57.7061988581828 0.0288550473614497 57.706198858232  
! Port Impedance50               0                50               0                

1.92             0.0122252251885265 146.565662789253 0.994509847544481 -137.275104379003 0.994509847544482 -137.275104379003 0.0119901976462601 140.94767299553  
! Gamma         !               0.0291584670175946 58.3136325308747 0.0291584670175423 58.3136325309209 
! Port Impedance50               0                50               0                

1.94             0.0117024988622724 146.131226221605 0.994428781348892 -138.705107453921 0.994428781348893 -138.705107453921 0.0114444948856448 140.119582871618 
! Gamma         !               0.0294619164757822 58.921066203519  0.0294619164757368 58.9210662035622 
! Port Impedance50               0                50               0                

1.96             0.0111706475852262 145.805893052616 0.994347391808321 -140.135139227187 0.994347391808322 -140.135139227187 0.0108871564061256 139.367385672668 
! Gamma         !               0.029765393737465 59.5284998761193 0.029765393737426 59.5284998761596 
! Port Impedance50               0                50               0                

1.98             0.0106306326694912 145.608437234016 0.994265669993229 -141.565200370054 0.99426566999323 -141.565200370054 0.0103187278902729 138.705199316959 
! Gamma         !               0.0300688968626976 60.1359335486785 0.0300688968626646 60.135933548716  
! Port Impedance50               0                50               0                

2                0.0100836024201682 145.561994692817 0.994183606407019 -142.995291494065 0.994183606407019 -142.995291494065 0.0097398467294437 138.150901931289 
! Gamma         !               0.0303724239768371 60.7433672211997 0.0303724239768094 60.7433672212346 
! Port Impedance50               0                50               0                

2.02             0.00953094997811347 145.695307133202 0.994101191061429 -144.425413148228 0.994101191061429 -144.425413148228 0.00915127353303809 137.727438892954 
! Gamma         !               0.0306759732757159 61.3508008936859 0.0306759732756932 61.3508008937181 
! Port Impedance50               0                50               0                

2.04             0.00897439317277545 146.044362591095 0.994018413556313 -145.855565816537 0.994018413556314 -145.855565816537 0.00855393799916744 137.464696518532 
! Gamma         !               0.0309795430295311 61.9582345661398 0.0309795430295129 61.9582345661694 
! Port Impedance50               0                50               0                

2.06             0.00841608586777298 146.654551987488 0.993935263163225 -147.285749915861 0.993935263163226 -147.285749915861 0.00794900714309644 137.402238099034 
! Gamma         !               0.0312831315856139 62.5656682385643 0.0312831315855999 62.5656682385915 
! Port Impedance50               0                50               0                

2.08             0.00785877454382698 147.583470171987 0.99385172891219 -148.71596579423 0.993851728912191 -148.71596579423 0.00733798922842172 137.593376379406 
! Gamma         !               0.0315867373702269 63.1731019109616 0.0315867373702166 63.1731019109864 
