! Touchstone file exported from HFSS 2018.2.0
!        File:           C:/Users/10024/OneDrive - The University of Nottingham Ningbo China/Year 4/Final Year Project/HFSS project/Passive_Resonator_Antenna.aedt
!        Generated:      5:10:46 下午  3月 11, 2022
!        Design:         SMA_Thru
!        Project:        Passive_Resonator_Antenna
!        Setup:          Setup1
!        Solution:       Sweep
!
! Variables:
!        MW = 1.992mm
!        ThruL = 20mm
!        g = 0.2mm
!        subH = 0.8mm
!        subX = 20mm
!        subY = 30mm
!        tapW = 1.992mm
!
# GHZ S MA R 50.000000
! Modal data exported
! Port[1] = SMA_CONNECTOR1_1:1
! Port[2] = SMA_CONNECTOR2_1:1
1                0.0210170979244293 -167.319982003592 0.997489626664875 -79.031508107915 0.997489626664875 -79.031508107915 0.0210125862719165 -167.998177599117 
! Gamma         !               0.0151858380091447 30.3716836111861 0.0151858380091045 30.3716836112125 
! Port Impedance50               0                50               0                

1.02             0.0210890108132272 -168.819415654759 0.997416146423901 -80.6114098496404 0.997416146423901 -80.6114098496404 0.0210843436980047 -169.475444318195 
! Gamma         !               0.0154929975781964 30.9791172053264 0.0154929978282576 30.9791173518405 
! Port Impedance50               0                50               0                

1.04             0.0211425163697426 -170.315544673583 0.997342035339152 -82.1912896314728 0.997342035339152 -82.1912896314727 0.0211377067122187 -170.950104458245 
! Gamma         !               0.015799439713199 31.5865508160155 0.0157994401542508 31.5865510780171 
! Port Impedance50               0                50               0                

1.06             0.021177471954941 -171.808190920788 0.997267320930561 -83.7711486434608 0.997267320930561 -83.7711486434608 0.0211725328007533 -172.421941006108 
! Gamma         !               0.016105273631283 32.1939844406476 0.0161052742148222 32.1939847920086 
! Port Impedance50               0                50               0                

1.08             0.0211937468063371 -173.297160840692 0.997192029715286 -85.3509881169157 0.997192029715287 -85.3509881169156 0.0211886913213244 -173.890724362083 
! Gamma         !               0.0164105938433733 32.8014180769892 0.0164105945297458 32.8014184957607 
! Port Impedance50               0                50               0                

1.1              0.0211912221976641 -174.782243884098 0.997116187171223 -86.9308093214279 0.997116187171223 -86.9308093214278 0.0211860636617558 -175.356210495244 
! Gamma         !               0.0167154820530544 33.4088517231259 0.0167154828099882 33.4088521909412 
! Port Impedance50               0                50               0                

1.12             0.0211697915979544 -176.263210729428 0.997039817703294 -88.510613561791 0.997039817703294 -88.5106135617909 0.0211645433981842 -176.818138924566 
! Gamma         !               0.0170200088067137 34.0162853774177 0.0170200096080918 34.01628587898   
! Port Impedance50               0                50               0                

1.14             0.0211293608307873 -177.739811270801 0.996962944612642 -90.0904021748375 0.996962944612642 -90.0904021748374 0.0211240364536205 -178.276230490965 
! Gamma         !               0.0173242349295019 34.6237190384608 0.0173242357543361 34.6237195611019 
! Port Impedance50               0                50               0                

1.16             0.0210698482345936 -179.211772336277 0.996885590068795 -91.6701765261941 0.996885590068795 -91.670176526194 0.0210644612577532 -179.73018488038 
! Gamma         !               0.0176282127764237 35.2311527050562 0.0176282136079951 35.2311532383541 
! Port Impedance50               0                50               0                

1.18             0.0209911848250933 179.321204907164 0.996807775084891 -93.2499380069619 0.996807775084892 -93.2499380069618 0.0209857489090618 178.820322148252 
! Gamma         !               0.0179319873235114 35.8385863761784 0.0179319881486478 35.8385869116318 
! Port Impedance50               0                50               0                

1.2              0.0208933144611353 177.859447913319 0.996729519496054 -94.8296880303302 0.996729519496054 -94.8296880303301 0.0208878433405157 177.375641883921 
! Gamma         !               0.0182355971203817 36.4460200509561 0.0182355979288535 36.4460205816975 
! Port Impedance50               0                50               0                

1.22             0.0207761940155161 176.403316142301 0.996650841940968 -96.4094280281295 0.996650841940969 -96.4094280281293 0.0207707014904117 175.936156196667 
! Gamma         !               0.0185390751224247 37.0534537286468 0.0185390759064359 37.0534542492005 
! Port Impedance50               0                50               0                

1.24             0.0206397935526005 174.95320494492  0.99657175984676 -97.9891594473324 0.99657175984676 -97.9891594473322 0.0206342934802119 174.502281557805 
! Gamma         !               0.0188424494182811 37.6608874086216 0.0188424501720427 37.6608879146909 
! Port Impedance50               0                50               0                

1.26             0.0204840965150246 173.509550033463 0.996492289417208 -99.5688837465107 0.996492289417209 -99.5688837465105 0.0204786028016289 173.074473636539 
! Gamma         !               0.0191457438660918 38.2683210903478 0.0191457445854624 38.2683215786357 
! Port Impedance50               0                50               0                

1.28             0.0203090999221648 172.072832644286 0.996412445624373 -101.148602392255 0.996412445624373 -101.148602392255 0.0203036265156917 171.653232579952 
! Gamma         !               0.019448978650152 38.8757547733784 0.0194489793323385 38.8757552414268 
! Port Impedance50               0                50               0                

1.3              0.0201148145836963 170.643585519701 0.996332242203666 -102.728316855569 0.996332242203666 -102.728316855569 0.020109375467097 170.239109105367 
! Gamma         !               0.0197521707680302 39.4831884573369 0.0197521714113334 39.4831889033947 
! Port Impedance50               0                50               0                

1.32             0.0199012653322442 169.222399864095 0.996251691652428 -104.308028608239 0.996251691652429 -104.308028608239 0.0198958745178899 168.83271156143  
! Gamma         !               0.0200553344568692 40.09062214191   0.0200553350604738 40.0906225648141 
! Port Impedance50               0                50               0                

1.34             0.0196684912800577 167.809933463446 0.996170805232035 -105.887739119204 0.996170805232036 -105.887739119204 0.0196631628054272 167.434714148439 
! Gamma         !               0.0203584815664434 40.6980558268374 0.0203584821302397 40.6980562259144 
! Port Impedance50               0                50               0                

1.36             0.0194165461057682 166.406920200336 0.99608959297356 -107.467449850911 0.996089592973561 -107.467449850911 0.0194112940307104 166.045866531452 
! Gamma         !               0.020661621885558 41.3054895119042 0.0206616224099942 41.3054898868838 
! Port Impedance50               0                50               0                

1.38             0.0191454983787087 165.014181250857 0.996008063687022 -109.047162255692 0.996008063687023 -109.047162255691 0.0191403367846144 164.667005133959 
! Gamma         !               0.0209647634275321 41.912923196936  0.0209647639134911 41.9129235478762 
! Port Impedance50               0                50               0                

1.4              0.018855431930114 163.632638318597 0.995926224974218 -110.626877772149 0.995926224974219 -110.626877772149 0.0188503749213868 163.299066468832 
! Gamma         !               0.0212679126797802 42.5203568817919 0.0212679131284768 42.5203572090166 
! Port Impedance50               0                50               0                

1.42             0.0185464462828406 162.263329348946 0.995844083245155 -112.206597821577 0.995844083245157 -112.206597821576 0.0185415079911241 161.943102951411 
! Gamma         !               0.0215710748218718 43.1277905663588 0.0215710752347674 43.1277908704043 
! Port Impedance50               0                50               0                

1.44             0.0182186571542539 160.907427280076 0.995761643738071 -113.786323804411 0.995761643738073 -113.786323804411 0.0182138517459522 160.600301752899 
! Gamma         !               0.0218742539159077 43.7352242505484 0.0218742542946403 43.7352245321171 
! Port Impedance50               0                50               0                

1.46             0.0178721970508392 159.566262533523 0.995678910543015 -115.366057096739 0.995678910543017 -115.366057096738 0.0178675387385881 159.272007399064 
! Gamma         !               0.0221774530725739 44.3426579342942 0.0221774534189003 44.3426581942152 
! Port Impedance50               0                50               0                

1.48             0.0175072159781931 158.241350138519 0.995595886628991 -116.945799046853 0.995595886628993 -116.945799046853 0.0175027190370761 157.959749010757 
! Gamma         !               0.0224806745958277 44.9500916175457 0.0224806749115763 44.9500918567424 
! Port Impedance50               0                50               0                

1.5              0.0171238822968017 156.934422635558 0.995512573874607 -118.525550971889 0.995512573874609 -118.525550971889 0.0171195610862766 156.665273334566 
! Gamma         !               0.0227839201088041 45.5575253002683 0.0227839203958368 45.5575255197305 
! Port Impedance50               0                50               0                

1.52             0.0167223837629767 155.647470237897 0.995428973102188 -120.105314154526 0.99542897310219 -120.105314154526 0.0167182527557192 155.390585045604 
! Gamma         !               0.023087190663226 46.1649589824395 0.0230871909234076 46.1649591831992 
! Port Impedance50               0                50               0                

1.54             0.0163029288063682 154.382790175087 0.995345084115313 -121.685089839789 0.995345084115315 -121.685089839789 0.016299002625525 154.13799625058  
! Gamma         !               0.0233904868343198 46.7723926640463 0.0233904870694931 46.7723928471608 
! Port Impedance50               0                50               0                

1.56             0.0158657481117938 153.14304774358  0.995260905739695 -123.264879231944 0.995260905739696 -123.264879231943 0.0158620415785269 152.910187720969 
! Gamma         !               0.023693808803005 47.3798263450857 0.0236938090149722 47.3798265116183 
! Port Impedance50               0                50               0                

1.58             0.015411096595492 151.931352407921 0.995176435867329 -124.844683491502 0.995176435867331 -124.844683491501 0.0154076247892058 151.710285205706 
! Gamma         !               0.0239971564269113 47.9872600255606 0.023997156617419 47.9872601765703 
! Port Impedance50               0                50               0                

1.6              0.0149392558968846 150.75135342242  0.995091671503853 -126.424503732346 0.995091671503854 -126.424503732346 0.0149360342311797 150.541955300219 
! Gamma         !               0.0243005293015956 48.5946937054794 0.0243005294723236 48.5946938420089 
! Port Impedance50               0                50               0                

1.62             0.0144505375502847 149.607361009732 0.995006608818968 -128.004341018988 0.995006608818969 -128.004341018987 0.0144475818685721 149.409526916659 
! Gamma         !               0.0246039268131656 49.2021273848559 0.0246039269657192 49.2021275079229 
! Port Impedance50               0                50               0                

1.64             0.0139452870625453 148.50450133685  0.994921243199877 -129.584196363955 0.994921243199878 -129.584196363955 0.0139426137584341 148.318146605439 
! Gamma         !               0.0249073481833775 49.8095610637063 0.0249073483192819 49.809561174298  
! Port Impedance50               0                50               0                

1.66             0.01342388921102 147.448916667198 0.994835569307579 -131.164070725342 0.99483556930758 -131.164070725342 0.0134215153801901 147.273979117604 
! Gamma         !               0.0252107925081467 50.4169947420509 0.0252107926288438 50.4169948411173 
! Port Impedance50               0                50               0                

1.68             0.0128867750051577 146.448026593253 0.994749581135911 -132.743965004507 0.994749581135913 -132.743965004507 0.0128847186375871 146.284469123216 
! Gamma         !               0.0255142587903013 51.024428419911  0.025514258897148 51.024428508362  
! Port Impedance50               0                50               0                

1.7              0.0123344309457734 145.510872868146 0.994663272073203 -134.323880043943 0.994663272073204 -134.323880043942 0.0123327111701499 145.35868661303  
! Gamma         !               0.0258177459673084 51.631862097309  0.0258177460615758 51.6318621760129 
! Port Impedance50               0                50               0                

1.72             0.0117674115030648 144.648580157237 0.994576634966391 -135.90381662532 0.994576634966392 -135.903816625319 0.0117660488993266 144.507788305543 
! Gamma         !               0.0261212529346184 52.2392957742694 0.0261212530174934 52.2392958440484 
! Port Impedance50               0                50               0                

1.74             0.0111863561738008 143.874979770127 0.99448966218744 -137.483775467719 0.994489662187441 -137.483775467719 0.011185373175359 143.745642102499 
! Gamma         !               0.0264247785651958 52.8467294508165 0.0264247786377822 52.8467295124479 
! Port Impedance50               0                50               0                

1.76             0.0105920131633236 143.20746592706  0.99440234570191 -139.063757226054 0.994402345701911 -139.063757226054 0.0105914345783801 143.089684087366 
! Gamma         !               0.0267283217257371 53.4541631269747 0.0267283217890582 53.4541631811892 
! Port Impedance50               0                50               0                

1.78             0.00998527282823258 142.66818894884  0.994314677139488 -140.643762489695 0.994314677139488 -140.643762489695 0.00998512652034129 142.562112305421 
! Gamma         !               0.0270318812900157 54.0615968027684 0.0270318813450169 54.0615968502518 
! Port Impedance50               0                50               0                

1.8              0.00936721578686786 142.285744463962 0.994226647866306 -142.223791781297 0.994226647866308 -142.223791781297 0.00936753356944753 142.191576075559 
! Gamma         !               0.0273354561497437 54.6690304782217 0.0273354561972961 54.6690305196145 
! Port Impedance50               0                50               0                

1.82             0.00873918354642749 142.09760465508  0.99413824905886 -143.803845555853 0.994138249058861 -143.803845555853 0.00874000236471056 142.015606102443 
! Gamma         !               0.027639045223291 55.2764641533581 0.0276390452641946 55.2764641892567 
! Port Impedance50               0                50               0                

1.84             0.00810288449143012 142.153676699415 0.994049471779317 -145.383924199953 0.994049471779317 -145.383924199953 0.00810424798704706 142.084168915837 
! Gamma         !               0.027942647462561 55.8838978282003 0.0279426474975486 55.8838978591582 
! Port Impedance50               0                50               0                

1.86             0.00746055674935973 142.521595684309 0.993960307052023 -146.964028031282 0.993960307052024 -146.964028031282 0.00746251732015474 142.464949404081 
! Gamma         !               0.028246261858288 56.4913315027703 0.0282462618880287 56.4913315293001 
! Port Impedance50               0                50               0                

1.88             0.00681522478739645 143.294705562562 0.993870745940989 -148.544157298343 0.99387074594099 -148.544157298343 0.00681784624303388 143.251307377137 
! Gamma         !               0.0285498874439856 57.0987651770895 0.028549887469089 57.0987651996639 
! Port Impedance50               0                50               0                

1.9              0.00617111404504425 144.604181703135 0.993780779628137 -150.12431218042 0.993780779628137 -150.12431218042 0.0061744748412891 144.574345061383 
! Gamma         !               0.0288535232987502 57.7061988511772 0.0288535233197699 57.7061988702316 
! Port Impedance50               0                50               0                

1.92             0.0055343367598345 146.637307162106 0.993690399492087 -151.704492787774 0.993690399492087 -151.704492787774 0.00553853335208048 146.621061477048 
! Gamma         !               0.0291571685490937 58.3136325250534 0.0291571685665311 58.3136325409869 
! Port Impedance50               0                50               0                

1.94             0.00491404491947367 149.663858530419 0.993599597187259 -153.284699162092 0.993599597187259 -153.284699162092 0.00491919340701155 149.660473840522 
! Gamma         !               0.0294608223699639 58.9210661987359 0.0294608223842721 58.9210662119135 
! Port Impedance50               0                50               0                

1.96             0.00432436313755388 154.069035140303 0.99350836472305 -154.864931277172 0.993508364723051 -154.864931277172 0.00433059354735149 154.07600097358  
! Gamma         !               0.0297644839850839 59.5284998722416 0.0297644839966708 59.5284998829965 
! Port Impedance50               0                50               0                

1.98             0.00378746654823626 160.374659231626 0.993416694542863 -156.445189039863 0.993416694542862 -156.445189039863 0.00379489477065493 160.385691907932 
! Gamma         !               0.0300681526667286 60.1359335455865 0.0300681526759604 60.1359335542221 
! Port Impedance50               0                50               0                

2                0.00333762952506832 169.176395143717 0.993324579602727 -158.025472291248 0.993324579602727 -158.025472291248 0.00334627577773437 169.178456878058 
! Gamma         !               0.0303718277350412 60.743367218786  0.0303718277422461 60.7433672255765 
! Port Impedance50               0                50               0                

2.02             0.00302332662425448 -179.177828930752 0.993232013449311 -159.605780808081 0.993232013449311 -159.605780808081 0.00303295221798997 -179.205646891541 
! Gamma         !               0.0306755085569764 61.3508008918538 0.0306755085624473 61.3508008970477 
! Port Impedance50               0                50               0                

2.04             0.00289843276107649 -165.276917278822 0.993138990297032 -161.186114304466 0.993138990297032 -161.186114304466 0.00290838839556666 -165.354512875236 
! Gamma         !               0.0309791945449473 61.9582345648029 0.0309791945489445 61.9582345686242 
! Port Impedance50               0                50               0                

2.06             0.00299543897033309 -151.02250776772 0.993045505104075 -162.766472433794 0.993045505104074 -162.766472433794 0.00300482427021224 -151.15050020601 
! Gamma         !               0.0312828851552399 62.5656682376457 0.0312828851579945 62.5656682402956 
! Port Impedance50               0                50               0                

2.08             0.00330228082096693 -138.568952673213 0.992951553647032 -164.346854790913 0.992951553647031 -164.346854790913 0.00331041490559334 -138.726884415961 
