! Touchstone file exported from HFSS 2018.2.0
!        File:           C:/Users/10024/OneDrive - The University of Nottingham Ningbo China/Year 4/Final Year Project/HFSS project/Passive_Resonator_Antenna.aedt
!        Generated:      12:14:50 下午  3月 12, 2022
!        Design:         SMA_Thru
!        Project:        Passive_Resonator_Antenna
!        Setup:          Setup1
!        Solution:       Sweep
!
! Variables:
!        MW = 1mm
!        ThruL = 5mm
!        g = 0.2mm
!        subH = 0.8mm
!        subX = 20mm
!        subY = 15mm
!        tapW = 1mm
!
# GHZ S MA R 50.000000
! Modal data exported
! Port[1] = SMA_CONNECTOR1_1:1
! Port[2] = SMA_CONNECTOR2_1:1
1                0.155942140101174 39.0061088593873 0.98692933458409 -50.9560198589834 0.986929334584088 -50.9560198589834 0.155943563530446 38.9790218537158 
! Gamma         !               0.0151858380091235 30.3716836111901 0.015185838009153 30.3716836111883 
! Port Impedance50               0                50               0                

1.02             0.15878330957849 37.9877866670732 0.986451852365776 -51.9666302744598 0.986451852365774 -51.9666302744599 0.158784732654584 37.9707321226972 
! Gamma         !               0.0155579197733071 30.9791171453927 0.0155579197769563 30.9791171467211 
! Port Impedance50               0                50               0                

1.04             0.161608914361624 36.9699924880512 0.985968083950713 -52.9767736954707 0.985968083950712 -52.9767736954708 0.161610334671356 36.9627670048455 
! Gamma         !               0.0159220250569284 31.5865506982882 0.0159220250635888 31.5865507007745 
! Port Impedance50               0                50               0                

1.06             0.164418734223806 35.9527259228107 0.985478194851602 -53.9864445549387 0.9854781948516  -53.9864445549387 0.164420149312322 35.9551375017714 
! Gamma         !               0.0162789101438367 32.193984267701  0.0162789101529868 32.1939842711926 
! Port Impedance50               0                50               0                

1.08             0.16721255311169 34.935986883787  0.984982351916777 -54.9956374691064 0.984982351916776 -54.9956374691065 0.167213960482392 34.9478540813401 
! Gamma         !               0.0166292578831736 32.8014178517242 0.0166292578943662 32.8014178560847 
! Port Impedance50               0                50               0                

1.1              0.169990159158722 33.9197755505101 0.984480723242861 -56.0043472386621 0.984480723242859 -56.0043472386622 0.16999155627324 33.9409267097898 
! Gamma         !               0.0169736856545855 33.4088514486806 0.0169736856674365 33.4088514537892 
! Port Impedance50               0                50               0                

1.12             0.172751344695764 32.9040923294243 0.983973478087699 -57.0125688497493 0.983973478087697 -57.0125688497493 0.172752728973948 32.9343648802807 
! Gamma         !               0.0173127523497604 34.0162850570932 0.0173127523639403 34.0162850628416 
! Port Impedance50               0                50               0                

1.14             0.175495906258995 31.8889378178264 0.983460786783693 -58.0202974748617 0.983460786783692 -58.0202974748618 0.175497275078927 31.9281776383311 
! Gamma         !               0.0176469645069881 34.6237186756595 0.0176469645222146 34.6237186819509 
! Port Impedance50               0                50               0                

1.16             0.178223644595117 30.8743127714406 0.98294282065158 -59.0275284736253 0.982942820651578 -59.0275284736254 0.178224995293133 30.9223736045356 
! Gamma         !               0.0179767817144189 35.2311523032263 0.0179767817304494 35.231152309975  
! Port Impedance50               0                50               0                

1.18             0.180934364663923 29.8602180752213 0.982419751914759 -60.034257393467 0.982419751914759 -60.0342573934671 0.180935694534638 29.9169609949053 
! Gamma         !               0.0183026213801973 35.8385859387722 0.018302621396824 35.8385859459018 
! Port Impedance50               0                50               0                

1.2              0.183627875638237 28.8466547170202 0.981891753614242 -61.0404799701721 0.981891753614242 -61.0404799701722 0.183629181934555 28.9119476391251 
! Gamma         !               0.0186248629530494 36.4460195813931 0.0186248629700947 36.4460195888349 
! Port Impedance50               0                50               0                

1.22             0.186303990901294 27.8336237638073 0.981358999524287 -62.046192128332 0.981358999524286 -62.0461921283321 0.186305270834405 27.9073409969847 
! Gamma         !               0.0189438516646778 37.0534532302836 0.0189438516819899 37.0534532379763 
! Port Impedance50               0                50               0                

1.24             0.188962528041576 26.8211263401744 0.980821664068808 -63.0513899816823 0.980821664068807 -63.0513899816824 0.188963778780931 26.9031481732035 
! Gamma         !               0.0192599018550351 37.6608868847276 0.0192599018724845 37.660886892617  
! Port Impedance50               0                50               0                

1.26             0.191603308845181 25.8091636088791 0.980279922238615 -64.0560698333344 0.980279922238614 -64.0560698333345 0.191604527518432 25.8993759308438 
! Gamma         !               0.0195732999329039 38.2683205440875 0.0195732999503803 38.2683205521255 
! Port Impedance50               0                50               0                

1.28             0.194226159285736 24.7977367532238 0.979733949509557 -65.0602281759011 0.979733949509556 -65.0602281759012 0.194227342978643 24.8960307034816 
! Gamma         !               0.0198843070168936 38.8757542077939 0.0198843070343038 38.8757542159372 
! Port Impedance50               0                50               0                

1.3              0.196830909511927 23.7868469610836 0.979183921761639 -66.0638616915182 0.979183921761639 -66.0638616915183 0.196832055268228 23.893118606281  
! Gamma         !               0.0201931612957662 39.4831878753394 0.0201931613130312 39.4831878835499 
! Port Impedance50               0                50               0                

1.32             0.199417393832697 22.7764954104199 0.978630015199156 -67.0669672517648 0.978630015199156 -67.0669672517649 0.199418498653921 22.890645446102  
! Gamma         !               0.0205000801417445 40.0906215462692 0.0205000801587983 40.0906215545126 
! Port Impedance50               0                50               0                

1.34             0.201985450700141 21.7666832561398 0.978072406271924 -68.0695419174822 0.978072406271924 -68.0695419174823 0.201986511545383 21.8886167307553 
! Gamma         !               0.0208052620059644 40.6980552201774 0.0208052620227519 40.6980552284237 
! Port Impedance50               0                50               0                

1.36             0.204534922690183 20.7574116181699 0.977511271597649 -69.071582938496 0.977511271597648 -69.0715829384961 0.204535936475807 20.8870376775012 
! Gamma         !               0.0211088881214113 41.3054888967    0.0211088881378869 41.3054889049225 
! Port Impedance50               0                50               0                

1.38             0.207065656481053 19.7486815706343 0.976946787885491 -70.0730877532412 0.97694678788549 -70.0730877532413 0.207066620080357 19.8859132208818 
! Gamma         !               0.0214111240353934 41.9129225755107 0.0214111240515194 41.9129225836859 
! Port Impedance50               0                50               0                

1.4              0.209577502829657 18.740494132036  0.976379131860874 -71.0740539882942 0.976379131860874 -71.0740539882943 0.209578413072459 18.8852480199624 
! Gamma         !               0.021712120990798 42.5203562563176 0.0217121210065443 42.520356264425  
! Port Impedance50               0                50               0                

1.42             0.212070316545865 17.7328502563501 0.975808480191591 -72.0744794578126 0.975808480191591 -72.0744794578128 0.212071170218033 17.885046465049  
! Gamma         !               0.0220120171729553 43.1277899388584 0.0220120171882979 43.1277899468795 
! Port Impedance50               0                50               0                

1.44             0.214543956464789 16.7257508249511 0.975235009415238 -73.0743621628862 0.975235009415238 -73.0743621628863 0.2145447503077  16.8853126839418 
! Gamma         !               0.022310938836844 43.7352236228972 0.0223109388517643 43.7352236308166 
! Port Impedance50               0                50               0                

1.46             0.216998285417105 15.7191966393003 0.97465889586803 -74.0737002908002 0.97465889586803 -74.0737002908003 0.216999016127044 15.8860505477781 
! Gamma         !               0.0226090013275764 44.3426573082239 0.0226090013420605 44.3426573160275 
! Port Impedance50               0                50               0                

1.48             0.219433170197483 14.7131884143287 0.974080315615029 -75.072492214215 0.97408031561503 -75.0724922142151 0.21943383442496 14.8872636765085 
! Gamma         !               0.0229063100055388 44.9500909946485 0.0229063100195768 44.9500910023242 
! Port Impedance50               0                50               0                

1.5              0.22184848153117 13.7077267724593 0.973499444381827 -76.0707364902629 0.973499444381827 -76.070736490263 0.221849075880178 13.8889554440498 
! Gamma         !               0.023202961086206 45.5575246820001 0.0232029610997913 45.5575246895383 
! Port Impedance50               0                50               0                

1.52             0.224244094038801 12.7028122382125 0.972916457487701 -77.0684318595655 0.972916457487702 -77.0684318595656 0.224244615065991 12.8911289831485 
! Gamma         !               0.0234990424034768 46.164958370127  0.0234990424166061 46.1649583775188 
! Port Impedance50               0                50               0                

1.54             0.226619886199477 11.698445233351  0.972331529780294 -78.0655772451743 0.972331529780295 -78.0655772451745 0.226620330413276 11.8937871899892 
! Gamma         !               0.0237946341043524 46.772392058892  0.0237946341170249 46.7723920661295 
! Port Impedance50               0                50               0                

1.56             0.228975740312203 10.6946260725173 0.971744835571821 -79.062171751436 0.971744835571822 -79.0621717514362 0.228976104171843 10.8969327285735 
! Gamma         !               0.0240898092818804 47.3798257481713 0.0240898092940974 47.3798257552493 
! Port Impedance50               0                50               0                

1.58             0.231311542455697 9.69135495932779 0.971156548576848 -80.0582146627867 0.971156548576849 -80.0582146627868 0.231311822370188 9.90056803489638 
! Gamma         !               0.0243846345525122 47.9872594378559 0.024384634564277 47.9872594447685 
! Port Impedance50               0                50               0                

1.6              0.233627182446677 8.6886319828862  0.970566841851649 -81.0537054424758 0.97056684185165 -81.0537054424759 0.233627374773707 8.90469532094101 
! Gamma         !               0.0246791705833332 48.5946931278462 0.0246791705946506 48.5946931345902 
! Port Impedance50               0                50               0                

1.62             0.235922553796658 7.68645711468349 0.96997588773517 -82.048643731224 0.969975887735171 -82.0486437312242 0.235922654841411 7.90931657851236 
! Gamma         !               0.024973472574025 49.2021268180543 0.0249734725849012 49.2021268246265 
! Port Impedance50               0                50               0                

1.64             0.238197553667315 6.6848302058564  0.969383857791606 -83.0430293458167 0.969383857791608 -83.0430293458168 0.238197559681243 6.91443358292585 
! Gamma         !               0.0252675906978925 49.8095605084011 0.025267590708335 49.809560514799  
! Port Impedance50               0                50               0                

1.66             0.240452082824495 5.6837509847751  0.968790922754622 -84.0368622776357 0.968790922754623 -84.0368622776358 0.240451990004005 5.92004789656724 
! Gamma         !               0.025561570505824 50.416994198816  0.0255615705158411 50.4169942050383 
! Port Impedance50               0                50               0                

1.68             0.242686045590907 4.68321905493731 0.968197252473199 -85.0301426911326 0.968197252473201 -85.0301426911328 0.242685850076   4.92616087233672 
! Gamma         !               0.0258554532966408 51.0244278892365 0.0258554533062415 51.0244278952822 
! Port Impedance50               0                50               0                

1.7              0.244899349797572 3.6832338931446  0.967603015859155 -86.0228709222457 0.967603015859156 -86.0228709222458 0.244899047670408 3.93277365698945 
! Gamma         !               0.026149276456935 51.6318615796065 0.026149276466129 51.6318615854755 
! Port Impedance50               0                50               0                

1.72             0.247091906734075 2.68379484794033 0.967008380836306 -87.015047476763 0.967008380836307 -87.0150474767632 0.247091494017485 2.93988719438283 
! Gamma         !               0.026443073773171 52.2392952698766 0.0264430737819686 52.239295275569  
! Port Impedance50               0                50               0                

1.74             0.249263631097678 1.68490113829023 0.966413514291301 -88.0066730286352 0.966413514291302 -88.0066730286354 0.249263103753624 1.94750222864003 
! Gamma         !               0.0267368757185446 52.8467289600029 0.0267368757269564 52.8467289655196 
! Port Impedance50               0                50               0                

1.76             0.251414440941361 0.686551852487175 0.965818582026114 -88.9977484182393 0.965818582026114 -88.9977484182395 0.251413794869334 0.955619307237763 
! Gamma         !               0.027030709716842 53.4541626499463 0.0270307097248789 53.4541626552885 
! Port Impedance50               0                50               0                

1.78             0.253544257620831 -0.311254052735586 0.965223748712208 -89.9882746505971 0.96522374871221 -89.9882746505973 0.253543488656205 -0.0357612159740792 
! Gamma         !               0.0273246003853173 54.0615963396736 0.0273246003929904 54.0615963448425 
! Port Impedance50               0                50               0                

1.8              0.255653005740563 -1.3085177528987 0.96462917784636 -90.9782528935509 0.964629177846361 -90.9782528935511 0.255652109652906 -1.02663917781505 
! Gamma         !               0.0276185697584098 54.6690300291545 0.0276185697657304 54.6690300341521 
! Port Impedance50               0                50               0                

1.82             0.257740613098928 -2.30524055629174 0.964035031708131 -91.9676844758977 0.964035031708133 -91.9676844758979 0.25773958559026 -2.01701460287294 
! Gamma         !               0.0279126374939431 55.2764637183634 0.0279126375009226 55.2764637231918 
! Port Impedance50               0                50               0                

1.84             0.259807010632453 -3.30142390432274 0.963441471319009 -92.9565708854868 0.96344147131901 -92.956570885487 0.259805847335475 -3.00688770065406 
! Gamma         !               0.0282068210632937 55.8838974072774 0.0282068210699435 55.883897411939  
! Port Impedance50               0                50               0                

1.86             0.261852132359275 -4.29706937171411 0.962848656403176 -93.9449137672807 0.962848656403179 -93.9449137672809 0.261850828835558 -3.99625886278073 
! Gamma         !               0.0285011359268713 56.4913310958779 0.0285011359332026 56.4913311003753 
! Port Impedance50               0                50               0                

1.88             0.263875915321836 -5.2921786665556 0.962256745349922 -94.9327149213839 0.962256745349923 -94.9327149213841 0.26387446705998 -4.98512866023184 
! Gamma         !               0.0287955956961313 57.0987647841485 0.0287955957021555 57.0987647884845 
! Port Impedance50               0                50               0                

1.9              0.265878299528865 -6.28675363022587 0.961665895177661 -95.9199763010412 0.961665895177663 -95.9199763010414 0.265876701942629 -5.97349784062357 
! Gamma         !               0.0290902122832246 57.7061984720751 0.0290902122889528 57.7061984762527 
! Port Impedance50               0                50               0                

1.92             0.267859227896707 -7.28079623719125 0.961076261499583 -96.9067000106075 0.961076261499585 -96.9067000106077 0.267857476323118 -6.96136732552692 
! Gamma         !               0.0293849960392879 58.3136321596466 0.0293849960447309 58.3136321636691 
! Port Impedance50               0                50               0                

1.94             0.269818646190036 -8.27430859469154 0.960487998490873 -97.8928883034928 0.960487998490875 -97.892888303493 0.269816735887476 -7.94873820782005 
! Gamma         !               0.0296799558822892 58.9210658468537 0.0296799558874581 58.9210658507242 
! Port Impedance50               0                50               0                

1.96             0.271756502962009 -9.26729294232079 0.959901258857521 -98.8785435800835 0.959901258857522 -98.8785435800837 0.271754429108296 -8.93561174907254 
! Gamma         !               0.0299750994152598 59.5284995336894 0.0299750994201651 59.528499537411  
! Port Impedance50               0                50               0                

1.98             0.273672749493909 -10.259751651511 0.959316193806679 -99.863668385643 0.959316193806681 -99.8636683856432 0.273670507184354 -9.92198937696017 
! Gamma         !               0.0302704330356698 60.1359332201478 0.0302704330403218 60.1359332237243 
! Port Impedance50               0                50               0                

2                0.275567339734303 -11.2516872249266 0.958732953018571 -100.848265408194 0.958732953018573 -100.848265408194 0.275564923979776 -10.9078726827083 
! Gamma         !               0.0305659620366396 60.7433669062253 0.0305659620410487 60.7433669096599 
! Port Impedance50               0                50               0                

2.02             0.277440230237793 -12.2431022957753 0.958151684619907 -101.832337476384 0.958151684619909 -101.832337476384 0.277437635962776 -11.8932634185627 
! Gamma         !               0.0308616907006197 61.3508005919192 0.0308616907047958 61.3508005952155 
! Port Impedance50               0                50               0                

2.04             0.279291380103376 -13.2339996270433 0.957572535158798 -102.815887557338 0.957572535158799 -102.815887557338 0.27928860214402 -12.8781634952855 
! Gamma         !               0.0311576223861147 61.9582342772282 0.0311576223900676 61.9582342803899 
! Port Impedance50               0                50               0                

2.06             0.281120750912458 -14.2243821106594 0.956995649581145 -103.798918754496 0.956995649581148 -103.798918754497 0.281117784014658 -13.8625749796772 
! Gamma         !               0.0314537596079823 62.5656679621526 0.0314537596117213 62.5656679651832 
! Port Impedance50               0                50               0                

2.08             0.282928306666587 -15.2142527665947 0.956421171208479 -104.781434305448 0.956421171208479 -104.781434305448 0.282925145484053 -14.8465000921214 
! Gamma         !               0.0317501041117909 63.1731016466929 0.0317501041153254 63.1731016495961 
! Port Impedance50               0                50               0                

