# Hz S DB R 50
! CMT, C2409, 19096212, 19.2.3/2
! Date: 3/29/2022 2:31:33 AM
! Data: Format (Calibration Info)
! Freq	S11:dB/Ang(F2)	S21:dB/Ang(F2)	S12:dB/Ang(F2)	S22:dB/Ang(F2)
5.00000000000E+08	-2.27051330239E+01	+4.00613092480E+01	-7.19151570677E-01	-4.11391717634E+01	-7.12347029083E-01	-4.11447443499E+01	-2.28146669461E+01	+5.53919778922E+01
5.00248552423E+08	-2.27174959408E+01	+3.99069015667E+01	-7.18687272943E-01	-4.13419465789E+01	-7.12024574437E-01	-4.13227563812E+01	-2.28343723196E+01	+5.52205342618E+01
5.00497228402E+08	-2.27292249559E+01	+3.97257319408E+01	-7.18964728082E-01	-4.15354265559E+01	-7.12204578050E-01	-4.15208882953E+01	-2.28410591402E+01	+5.49972776661E+01
5.00746028000E+08	-2.27413044375E+01	+3.95307030911E+01	-7.20015905472E-01	-4.17372970154E+01	-7.11283387836E-01	-4.17313105062E+01	-2.28592850357E+01	+5.48172097280E+01
5.00994951277E+08	-2.27596386262E+01	+3.93338007220E+01	-7.18051549144E-01	-4.19383977981E+01	-7.11596632031E-01	-4.19200023578E+01	-2.28809302599E+01	+5.46385496788E+01
5.01243998295E+08	-2.27751503963E+01	+3.91595549213E+01	-7.19607303327E-01	-4.21314180825E+01	-7.12871657688E-01	-4.21259615696E+01	-2.28914164661E+01	+5.44288326028E+01
5.01493169115E+08	-2.27881464862E+01	+3.89637933374E+01	-7.19591692156E-01	-4.23337928773E+01	-7.11792712915E-01	-4.23149993544E+01	-2.29127385304E+01	+5.42268229629E+01
5.01742463799E+08	-2.28020395202E+01	+3.87842417367E+01	-7.19434274112E-01	-4.25317039478E+01	-7.13235468236E-01	-4.25185459884E+01	-2.29301187904E+01	+5.40334410325E+01
5.01991882409E+08	-2.28141913991E+01	+3.85892624907E+01	-7.18590013401E-01	-4.27296418117E+01	-7.13216627585E-01	-4.27254156839E+01	-2.29340567424E+01	+5.38429856896E+01
5.02241425007E+08	-2.28282141576E+01	+3.83930826282E+01	-7.20129856779E-01	-4.29279498888E+01	-7.13527197895E-01	-4.29141668541E+01	-2.29502343308E+01	+5.36458619342E+01
5.02491091653E+08	-2.28428683744E+01	+3.82221857000E+01	-7.20270674459E-01	-4.31252455348E+01	-7.14005418751E-01	-4.31186440494E+01	-2.29630937445E+01	+5.34336672037E+01
5.02740882409E+08	-2.28517448899E+01	+3.80054940619E+01	-7.19711719066E-01	-4.33261673493E+01	-7.13703853010E-01	-4.33169224897E+01	-2.29838189070E+01	+5.32975591463E+01
5.02990797338E+08	-2.28725773917E+01	+3.78290700899E+01	-7.20417610501E-01	-4.35257887622E+01	-7.13717906715E-01	-4.35124754064E+01	-2.30022922491E+01	+5.30526408060E+01
5.03240836501E+08	-2.28835259791E+01	+3.76429707929E+01	-7.19858783385E-01	-4.37276393515E+01	-7.14761801064E-01	-4.37041814853E+01	-2.30196575477E+01	+5.28974988737E+01
5.03490999959E+08	-2.28973799592E+01	+3.74742392360E+01	-7.19500609241E-01	-4.39229377613E+01	-7.12786505606E-01	-4.39171957338E+01	-2.30332893256E+01	+5.26722430511E+01
5.03741287775E+08	-2.29219727019E+01	+3.72607302100E+01	-7.20499751620E-01	-4.41185540372E+01	-7.14622606112E-01	-4.41149270810E+01	-2.30514645075E+01	+5.24918913237E+01
5.03991700010E+08	-2.29366685487E+01	+3.70931393030E+01	-7.21589439987E-01	-4.43225931007E+01	-7.14626296063E-01	-4.43160525746E+01	-2.30672330898E+01	+5.22631701395E+01
5.04242236726E+08	-2.29444052796E+01	+3.69071132475E+01	-7.21246578710E-01	-4.45220023532E+01	-7.13283859435E-01	-4.45086710480E+01	-2.30807054354E+01	+5.20883582601E+01
5.04492897985E+08	-2.29615005151E+01	+3.67416700641E+01	-7.21091174907E-01	-4.47240212407E+01	-7.14728697864E-01	-4.47099060557E+01	-2.30989039981E+01	+5.19074310473E+01
5.04743683850E+08	-2.29727668622E+01	+3.64983265079E+01	-7.21782572874E-01	-4.49173320154E+01	-7.13755091380E-01	-4.49075672386E+01	-2.31121933211E+01	+5.17197574616E+01
5.04994594381E+08	-2.29936970939E+01	+3.63172341756E+01	-7.20965080693E-01	-4.51202832733E+01	-7.16176045154E-01	-4.51081517032E+01	-2.31301847067E+01	+5.15383028298E+01
5.05245629641E+08	-2.30064298650E+01	+3.61787477507E+01	-7.21450451040E-01	-4.53208666677E+01	-7.15811604802E-01	-4.53099554081E+01	-2.31465761566E+01	+5.13454120271E+01
5.05496789691E+08	-2.30220803613E+01	+3.60139081217E+01	-7.20921061721E-01	-4.55188972328E+01	-7.16069159914E-01	-4.55133766425E+01	-2.31697815936E+01	+5.11100654402E+01
5.05748074595E+08	-2.30404756721E+01	+3.58348489990E+01	-7.22106525091E-01	-4.57203951677E+01	-7.15693652422E-01	-4.57163410629E+01	-2.31855911174E+01	+5.09150082977E+01
5.05999484413E+08	-2.30605280275E+01	+3.56387297264E+01	-7.22353144185E-01	-4.59178421085E+01	-7.14484479321E-01	-4.59074674457E+01	-2.32047900111E+01	+5.07544281170E+01
5.06251019209E+08	-2.30752039076E+01	+3.54398551784E+01	-7.22234904315E-01	-4.61192889620E+01	-7.15040750863E-01	-4.61172287246E+01	-2.32234990709E+01	+5.05293966047E+01
5.06502679044E+08	-2.30901792398E+01	+3.52428841424E+01	-7.22123662535E-01	-4.63219895289E+01	-7.14792933522E-01	-4.63108915718E+01	-2.32361915981E+01	+5.03708075776E+01
5.06754463980E+08	-2.31108755012E+01	+3.50886917177E+01	-7.23099055322E-01	-4.65226866450E+01	-7.16066994164E-01	-4.65110188415E+01	-2.32647024185E+01	+5.01196847884E+01
5.07006374079E+08	-2.31300417046E+01	+3.48482109576E+01	-7.22482922951E-01	-4.67184456790E+01	-7.15674473390E-01	-4.67175132870E+01	-2.32817746672E+01	+4.99504198398E+01
5.07258409405E+08	-2.31375850788E+01	+3.47311254243E+01	-7.20697609841E-01	-4.69228926316E+01	-7.16097185761E-01	-4.69050587744E+01	-2.33030539619E+01	+4.97519077952E+01
5.07510570018E+08	-2.31658916038E+01	+3.45279020666E+01	-7.22343769016E-01	-4.71214440771E+01	-7.15825178682E-01	-4.71138416748E+01	-2.33259058772E+01	+4.95334257375E+01
5.07762855982E+08	-2.31845642495E+01	+3.43319710504E+01	-7.22733136366E-01	-4.73296819416E+01	-7.15558057008E-01	-4.73105647826E+01	-2.33357488597E+01	+4.94179443905E+01
5.08015267358E+08	-2.32032689672E+01	+3.41570893010E+01	-7.24221600405E-01	-4.75196459165E+01	-7.16540486112E-01	-4.75191316282E+01	-2.33615866962E+01	+4.91517681760E+01
5.08267804209E+08	-2.32201831861E+01	+3.39672784875E+01	-7.23475317173E-01	-4.77196244909E+01	-7.16284871804E-01	-4.77213564192E+01	-2.33790957187E+01	+4.89911129687E+01
5.08520466597E+08	-2.32420872961E+01	+3.37747140120E+01	-7.23028677508E-01	-4.79268076230E+01	-7.16815189603E-01	-4.79153094824E+01	-2.34037611279E+01	+4.87546265776E+01
5.08773254585E+08	-2.32587838871E+01	+3.36200964747E+01	-7.22974985680E-01	-4.81285035663E+01	-7.16404342586E-01	-4.81233089613E+01	-2.34238823293E+01	+4.85683781388E+01
5.09026168235E+08	-2.32761150550E+01	+3.34501355477E+01	-7.23145502210E-01	-4.83328885464E+01	-7.17035490458E-01	-4.83237639525E+01	-2.34470564388E+01	+4.84243996754E+01
5.09279207610E+08	-2.32903271521E+01	+3.32500339582E+01	-7.22531191988E-01	-4.85265500242E+01	-7.16975928513E-01	-4.85301704220E+01	-2.34601554727E+01	+4.81790408757E+01
5.09532372772E+08	-2.33200185506E+01	+3.30872878898E+01	-7.24573237819E-01	-4.87374550193E+01	-7.16024699627E-01	-4.87287234010E+01	-2.34852941559E+01	+4.79686130065E+01
5.09785663784E+08	-2.33366246240E+01	+3.28980893997E+01	-7.24673176257E-01	-4.89361978020E+01	-7.16630730470E-01	-4.89278430391E+01	-2.35069634930E+01	+4.77905056134E+01
5.10039080707E+08	-2.33568558128E+01	+3.27234992535E+01	-7.23389287240E-01	-4.91370584780E+01	-7.17105818140E-01	-4.91297506006E+01	-2.35263431490E+01	+4.75489368052E+01
5.10292623606E+08	-2.33846604230E+01	+3.25691798514E+01	-7.22577267452E-01	-4.93443328930E+01	-7.16668885298E-01	-4.93305847162E+01	-2.35496719021E+01	+4.74051661308E+01
5.10546292542E+08	-2.34035705711E+01	+3.23667590178E+01	-7.24686876882E-01	-4.95464402342E+01	-7.17829444906E-01	-4.95338911891E+01	-2.35729892396E+01	+4.71917334145E+01
5.10800087578E+08	-2.34250363362E+01	+3.21383177407E+01	-7.24691316830E-01	-4.97431448545E+01	-7.16635172823E-01	-4.97364676028E+01	-2.35898935369E+01	+4.70204157934E+01
5.11054008776E+08	-2.34409796941E+01	+3.20274813259E+01	-7.25986992722E-01	-4.99524472108E+01	-7.17154997750E-01	-4.99385119225E+01	-2.36158070803E+01	+4.67867332858E+01
5.11308056201E+08	-2.34610299505E+01	+3.17963979751E+01	-7.23579757811E-01	-5.01472372064E+01	-7.18474688776E-01	-5.01455046394E+01	-2.36423866183E+01	+4.65792123392E+01
5.11562229913E+08	-2.34870702918E+01	+3.16011011033E+01	-7.23702472908E-01	-5.03555441678E+01	-7.16722941294E-01	-5.03417297444E+01	-2.36569204195E+01	+4.63390546537E+01
5.11816529976E+08	-2.35107436270E+01	+3.14519977502E+01	-7.24780022378E-01	-5.05593064254E+01	-7.17880727796E-01	-5.05400171680E+01	-2.36817925210E+01	+4.61602067159E+01
5.12070956453E+08	-2.35303153378E+01	+3.12797560896E+01	-7.25522412515E-01	-5.07516365134E+01	-7.19076417199E-01	-5.07483703154E+01	-2.37084745531E+01	+4.59896513754E+01
5.12325509407E+08	-2.35583867199E+01	+3.10833369535E+01	-7.24939683666E-01	-5.09572017850E+01	-7.17616843093E-01	-5.09551564780E+01	-2.37332045717E+01	+4.57944059150E+01
5.12580188900E+08	-2.35757180920E+01	+3.08701823001E+01	-7.26241051655E-01	-5.11662101760E+01	-7.17750090491E-01	-5.11591050146E+01	-2.37626792372E+01	+4.55847406744E+01
5.12834994996E+08	-2.35996154034E+01	+3.07316123124E+01	-7.24483149564E-01	-5.13585793047E+01	-7.17181037548E-01	-5.13571428685E+01	-2.37850129155E+01	+4.54151420096E+01
5.13089927757E+08	-2.36302443412E+01	+3.05468255341E+01	-7.25565937412E-01	-5.15772046183E+01	-7.18388410777E-01	-5.15578795768E+01	-2.38130989617E+01	+4.52192496976E+01
5.13344987246E+08	-2.36527672691E+01	+3.03139185960E+01	-7.24127802269E-01	-5.17726439319E+01	-7.19276257468E-01	-5.17716791568E+01	-2.38407667597E+01	+4.50006713879E+01
5.13600173527E+08	-2.36700761438E+01	+3.01746955020E+01	-7.24960989646E-01	-5.19786710345E+01	-7.18565941707E-01	-5.19686517626E+01	-2.38543407036E+01	+4.48097171912E+01
5.13855486662E+08	-2.36972366003E+01	+2.99824998383E+01	-7.24769354979E-01	-5.21832518781E+01	-7.18316777512E-01	-5.21716958554E+01	-2.38938050196E+01	+4.45719901336E+01
5.14110926714E+08	-2.37227304976E+01	+2.97974320973E+01	-7.25084986811E-01	-5.23809799411E+01	-7.18690386594E-01	-5.23663007774E+01	-2.39150221066E+01	+4.43953625200E+01
5.14366493747E+08	-2.37392457871E+01	+2.96043373587E+01	-7.25080170664E-01	-5.25897783693E+01	-7.20334109104E-01	-5.25838345815E+01	-2.39372019400E+01	+4.41772861621E+01
5.14622187824E+08	-2.37721067781E+01	+2.95098524106E+01	-7.26302678535E-01	-5.27936042165E+01	-7.18751249010E-01	-5.27869507932E+01	-2.39637955185E+01	+4.39729559116E+01
5.14878009007E+08	-2.38062722666E+01	+2.92952593569E+01	-7.26842148375E-01	-5.29952424172E+01	-7.18967595211E-01	-5.29969871351E+01	-2.39962741494E+01	+4.37341966097E+01
5.15133957360E+08	-2.38271793047E+01	+2.91183164644E+01	-7.26762788597E-01	-5.31979311326E+01	-7.19534792807E-01	-5.31946759969E+01	-2.40184257294E+01	+4.35410484820E+01
5.15390032947E+08	-2.38536882522E+01	+2.89394450256E+01	-7.25387669571E-01	-5.34065514081E+01	-7.19504876811E-01	-5.33974367122E+01	-2.40451046367E+01	+4.33800361412E+01
5.15646235829E+08	-2.38799249231E+01	+2.87591202649E+01	-7.25959774551E-01	-5.36077279270E+01	-7.18823025380E-01	-5.36068930209E+01	-2.40664363701E+01	+4.31484194513E+01
5.15902566072E+08	-2.39064810757E+01	+2.85892918822E+01	-7.26815660431E-01	-5.38159323511E+01	-7.17616782681E-01	-5.38061597497E+01	-2.40990707138E+01	+4.29245204022E+01
5.16159023737E+08	-2.39311734747E+01	+2.83936441394E+01	-7.26162528569E-01	-5.40224234231E+01	-7.19862429806E-01	-5.40212748480E+01	-2.41345063953E+01	+4.27331857557E+01
5.16415608889E+08	-2.39643836439E+01	+2.81972371241E+01	-7.26413452191E-01	-5.42214250627E+01	-7.19663940322E-01	-5.42223317059E+01	-2.41539517141E+01	+4.25479697998E+01
5.16672321591E+08	-2.39856272610E+01	+2.80460710838E+01	-7.25568230751E-01	-5.44254601734E+01	-7.19842604196E-01	-5.44264041802E+01	-2.41913756907E+01	+4.23621818560E+01
5.16929161905E+08	-2.40156004480E+01	+2.78680988504E+01	-7.27825696540E-01	-5.46367382897E+01	-7.19566637101E-01	-5.46230448526E+01	-2.42256970725E+01	+4.21290862384E+01
5.17186129897E+08	-2.40431708459E+01	+2.76592643327E+01	-7.26387510746E-01	-5.48461353313E+01	-7.20070289746E-01	-5.48393989565E+01	-2.42560130527E+01	+4.19027080158E+01
5.17443225628E+08	-2.40750356609E+01	+2.75023631690E+01	-7.26881160032E-01	-5.50430317791E+01	-7.20003632525E-01	-5.50393271868E+01	-2.42793532525E+01	+4.17487385500E+01
5.17700449163E+08	-2.40967761566E+01	+2.73726632697E+01	-7.26382072763E-01	-5.52433257649E+01	-7.19547966080E-01	-5.52437916648E+01	-2.43104510193E+01	+4.15329618634E+01
5.17957800564E+08	-2.41345513363E+01	+2.72133382312E+01	-7.27470682185E-01	-5.54589438198E+01	-7.19563964750E-01	-5.54400619540E+01	-2.43351133150E+01	+4.12960070761E+01
5.18215279897E+08	-2.41594126055E+01	+2.69779909619E+01	-7.27091911165E-01	-5.56483502170E+01	-7.19724470426E-01	-5.56510437931E+01	-2.43741658587E+01	+4.10687514289E+01
5.18472887224E+08	-2.41935452156E+01	+2.68184144118E+01	-7.26950516194E-01	-5.58654443747E+01	-7.20308286286E-01	-5.58501846016E+01	-2.44048532924E+01	+4.08854444253E+01
5.18730622608E+08	-2.42241890179E+01	+2.66342886010E+01	-7.28224159008E-01	-5.60758589785E+01	-7.21088653412E-01	-5.60643388882E+01	-2.44368265472E+01	+4.06152170896E+01
5.18988486114E+08	-2.42502701244E+01	+2.64423108627E+01	-7.28234959453E-01	-5.62750624565E+01	-7.20268115627E-01	-5.62681989294E+01	-2.44652164802E+01	+4.04848549251E+01
5.19246477806E+08	-2.42850568253E+01	+2.63275814437E+01	-7.28295702244E-01	-5.64790112001E+01	-7.19434748887E-01	-5.64724193360E+01	-2.45052638243E+01	+4.02303703026E+01
5.19504597746E+08	-2.43132948497E+01	+2.61704383800E+01	-7.28160523891E-01	-5.66865789231E+01	-7.21563986109E-01	-5.66790634363E+01	-2.45395953935E+01	+4.00668914752E+01
5.19762845999E+08	-2.43422768267E+01	+2.59677498191E+01	-7.27055103476E-01	-5.68971031898E+01	-7.20028115168E-01	-5.68957963561E+01	-2.45655731304E+01	+3.97950853581E+01
5.20021222628E+08	-2.43754067148E+01	+2.57864178596E+01	-7.26814042542E-01	-5.70988795332E+01	-7.20476847053E-01	-5.70954769261E+01	-2.45979211724E+01	+3.96112940199E+01
5.20279727698E+08	-2.44052247216E+01	+2.56171378022E+01	-7.27474700327E-01	-5.73005446266E+01	-7.20844393197E-01	-5.72998833213E+01	-2.46400087871E+01	+3.94467968365E+01
5.20538361271E+08	-2.44477558296E+01	+2.55190158037E+01	-7.28467651578E-01	-5.75216590904E+01	-7.20331628518E-01	-5.75105105889E+01	-2.46727641432E+01	+3.91492032206E+01
5.20797123413E+08	-2.44774298778E+01	+2.53099119629E+01	-7.28738570418E-01	-5.77180717017E+01	-7.19667676078E-01	-5.77099725111E+01	-2.47049816187E+01	+3.90177583216E+01
5.21056014187E+08	-2.45080636970E+01	+2.51030834964E+01	-7.28344229003E-01	-5.79297217752E+01	-7.21937572864E-01	-5.79239751053E+01	-2.47412703696E+01	+3.87860630657E+01
5.21315033656E+08	-2.45374890567E+01	+2.49411915283E+01	-7.27833523352E-01	-5.81344676707E+01	-7.21454512275E-01	-5.81326419209E+01	-2.47700954386E+01	+3.86032219433E+01
5.21574181886E+08	-2.45762350682E+01	+2.47730836568E+01	-7.28455333620E-01	-5.83443630960E+01	-7.21220395072E-01	-5.83315616658E+01	-2.48078956246E+01	+3.83607724301E+01
5.21833458939E+08	-2.46112466141E+01	+2.46293637234E+01	-7.28325181483E-01	-5.85486609079E+01	-7.21003574042E-01	-5.85450042332E+01	-2.48574092933E+01	+3.81297661756E+01
5.22092864880E+08	-2.46394791521E+01	+2.43901167281E+01	-7.28039830184E-01	-5.87574157244E+01	-7.20478314500E-01	-5.87503988444E+01	-2.48831676600E+01	+3.79402626244E+01
5.22352399773E+08	-2.46739673177E+01	+2.42755576398E+01	-7.28551725559E-01	-5.89688291684E+01	-7.20920395218E-01	-5.89661792806E+01	-2.49291284291E+01	+3.77467766932E+01
5.22612063682E+08	-2.47077437051E+01	+2.40774138985E+01	-7.28990293525E-01	-5.91698473720E+01	-7.21215670228E-01	-5.91618433883E+01	-2.49583916821E+01	+3.75468371007E+01
5.22871856671E+08	-2.47422062421E+01	+2.39393042107E+01	-7.28973736623E-01	-5.93824097122E+01	-7.22105040183E-01	-5.93732209163E+01	-2.50003652778E+01	+3.72902754192E+01
5.23131778805E+08	-2.47781411141E+01	+2.38302425041E+01	-7.28832508196E-01	-5.95892186858E+01	-7.22399032006E-01	-5.95853638218E+01	-2.50362190825E+01	+3.70670307005E+01
5.23391830147E+08	-2.48172547300E+01	+2.36224044082E+01	-7.27763089394E-01	-5.97931583872E+01	-7.22360858583E-01	-5.97867704200E+01	-2.50750763532E+01	+3.68664441001E+01
5.23652010762E+08	-2.48566767253E+01	+2.34760760293E+01	-7.28599236291E-01	-6.00039423603E+01	-7.21927817128E-01	-6.00032209826E+01	-2.51174732196E+01	+3.66658646941E+01
5.23912320714E+08	-2.48930488253E+01	+2.33033534732E+01	-7.28963298715E-01	-6.02085318232E+01	-7.22032699986E-01	-6.02025288360E+01	-2.51567114757E+01	+3.65041369765E+01
5.24172760067E+08	-2.49288720432E+01	+2.30957089065E+01	-7.29251305124E-01	-6.04186906011E+01	-7.22102856124E-01	-6.04132176388E+01	-2.51908796651E+01	+3.62476369058E+01
5.24433328886E+08	-2.49642939192E+01	+2.30223002523E+01	-7.28656863811E-01	-6.06230992610E+01	-7.22008261867E-01	-6.06259870841E+01	-2.52326283680E+01	+3.60487424971E+01
5.24694027235E+08	-2.50051174626E+01	+2.27161623495E+01	-7.28660361164E-01	-6.08319194753E+01	-7.22223006162E-01	-6.08298899305E+01	-2.52836102643E+01	+3.58761618876E+01
5.24954855178E+08	-2.50529671831E+01	+2.26037006775E+01	-7.30282247451E-01	-6.10419255325E+01	-7.21823496122E-01	-6.10312746055E+01	-2.53173310598E+01	+3.56268757791E+01
5.25215812781E+08	-2.50921975098E+01	+2.24488561696E+01	-7.29073257726E-01	-6.12492316333E+01	-7.23857435729E-01	-6.12364781400E+01	-2.53555982156E+01	+3.54038734514E+01
5.25476900106E+08	-2.51173618386E+01	+2.22931922924E+01	-7.29319621100E-01	-6.14600691492E+01	-7.23243407799E-01	-6.14499958411E+01	-2.54050645676E+01	+3.52112357507E+01
5.25738117220E+08	-2.51614668960E+01	+2.21566924051E+01	-7.28946681210E-01	-6.16658389993E+01	-7.22613276079E-01	-6.16598011642E+01	-2.54417307464E+01	+3.49759209466E+01
5.25999464185E+08	-2.51936813983E+01	+2.19277332672E+01	-7.29710817631E-01	-6.18744620187E+01	-7.22741460588E-01	-6.18746596521E+01	-2.54849340317E+01	+3.47603716305E+01
5.26260941068E+08	-2.52318890883E+01	+2.18618451871E+01	-7.30557784369E-01	-6.20903798819E+01	-7.22748586609E-01	-6.20747227831E+01	-2.55267427713E+01	+3.45672018349E+01
5.26522547932E+08	-2.52769809597E+01	+2.17021285910E+01	-7.30367407593E-01	-6.22962294947E+01	-7.22924521607E-01	-6.22856822761E+01	-2.55674634952E+01	+3.43438677534E+01
5.26784284841E+08	-2.53248332602E+01	+2.15324981415E+01	-7.30388323842E-01	-6.25010560843E+01	-7.23669410611E-01	-6.25070977093E+01	-2.56226994179E+01	+3.40719248121E+01
5.27046151862E+08	-2.53673967726E+01	+2.13581886606E+01	-7.29080727563E-01	-6.27154993897E+01	-7.22874230257E-01	-6.27095748148E+01	-2.56651175541E+01	+3.38376178241E+01
5.27308149058E+08	-2.54041503145E+01	+2.11802604139E+01	-7.30130046428E-01	-6.29219849896E+01	-7.23361665433E-01	-6.29206823147E+01	-2.57112443675E+01	+3.37300535480E+01
5.27570276494E+08	-2.54471866692E+01	+2.10302759939E+01	-7.30627427390E-01	-6.31245440079E+01	-7.23071360570E-01	-6.31271692149E+01	-2.57471866796E+01	+3.34227242703E+01
5.27832534235E+08	-2.54969648355E+01	+2.08977126419E+01	-7.30775047613E-01	-6.33372815029E+01	-7.23042613390E-01	-6.33485672177E+01	-2.57938657772E+01	+3.32526640549E+01
5.28094922345E+08	-2.55350738624E+01	+2.07378918081E+01	-7.29353725819E-01	-6.35595337022E+01	-7.23615112695E-01	-6.35450198368E+01	-2.58495717288E+01	+3.29863641606E+01
5.28357440890E+08	-2.55707100789E+01	+2.05775669166E+01	-7.30242973505E-01	-6.37607190778E+01	-7.23541334839E-01	-6.37597645967E+01	-2.59013163705E+01	+3.27301704987E+01
5.28620089934E+08	-2.56199228705E+01	+2.04267242362E+01	-7.30512678017E-01	-6.39730307707E+01	-7.23831364447E-01	-6.39610225106E+01	-2.59392603856E+01	+3.26001635383E+01
5.28882869543E+08	-2.56636823195E+01	+2.02179290940E+01	-7.30238007212E-01	-6.41744674955E+01	-7.24109512519E-01	-6.41801109358E+01	-2.59922693799E+01	+3.23248001386E+01
5.29145779780E+08	-2.57073019372E+01	+2.01233210453E+01	-7.30317458638E-01	-6.43832252216E+01	-7.24425757875E-01	-6.43805005049E+01	-2.60425492895E+01	+3.22031258913E+01
5.29408820711E+08	-2.57507389029E+01	+1.99638255023E+01	-7.30227910340E-01	-6.45860847373E+01	-7.23919124250E-01	-6.46010395002E+01	-2.60900797572E+01	+3.19424931694E+01
