# Hz S DB R 50
! CMT, C2409, 19096212, 19.2.3/2
! Date: 3/29/2022 3:16:56 AM
! Data: Format (Calibration Info)
! Freq	S11:dB/Ang(F2)	S21:dB/Ang(F2)	S12:dB/Ang(F2)	S22:dB/Ang(F2)
5.00000000000E+08	-5.08994894826E-02	-3.86795587233E+01	-8.70832347636E+01	+1.65571135870E+02	-9.08381265842E+01	-1.49390318190E+02	-6.52936547072E-02	-3.94264908408E+01
5.00248552423E+08	-4.82333447219E-02	-3.87662417990E+01	-9.21581366871E+01	-7.99641787358E+00	-8.79922772785E+01	-1.00606589004E+02	-6.07951710805E-02	-3.94485479919E+01
5.00497228402E+08	-5.48372659508E-02	-3.87201339423E+01	-9.46122746795E+01	-8.09076575382E+01	-8.94468942614E+01	+1.27669905839E+02	-6.09117086168E-02	-3.94758521344E+01
5.00746028000E+08	-5.49747517660E-02	-3.87255567380E+01	-9.46765105442E+01	-1.27200335102E+02	-9.43442611953E+01	+1.34900083436E+02	-6.68857370972E-02	-3.95423414015E+01
5.00994951277E+08	-5.26666691863E-02	-3.87542411345E+01	-9.60031414611E+01	-6.16456194159E+01	-8.78139932266E+01	+7.39739614388E+01	-5.76806346688E-02	-3.94650492699E+01
5.01243998295E+08	-5.24762127670E-02	-3.88193215408E+01	-9.71877273268E+01	+6.84945787057E+01	-1.01461948605E+02	+1.10330135388E+02	-6.21265653920E-02	-3.94885281377E+01
5.01493169115E+08	-5.83756446569E-02	-3.88122081381E+01	-9.03470034795E+01	+1.67917957646E+02	-9.73079575170E+01	-7.11071823317E+01	-7.19077014675E-02	-3.95858962443E+01
5.01742463799E+08	-4.76349093551E-02	-3.88706698337E+01	-9.42593516148E+01	+1.22241274740E+02	-9.98904813631E+01	-1.36266553371E+02	-6.36722472513E-02	-3.95266974114E+01
5.01991882409E+08	-6.38316138050E-02	-3.88333369572E+01	-9.12832878298E+01	+1.31001978789E+02	-9.14657424931E+01	+1.57875080180E+02	-6.23352404384E-02	-3.96068919298E+01
5.02241425007E+08	-5.55745304865E-02	-3.88494963645E+01	-1.05643407744E+02	+1.59539053842E+02	-9.53997893168E+01	-8.68656318508E+01	-6.80587301326E-02	-3.95998668640E+01
5.02491091653E+08	-5.26733963013E-02	-3.88746872537E+01	-9.01952223769E+01	-2.57434692484E+01	-9.81263647818E+01	+1.45108195614E+02	-5.95993658102E-02	-3.96882965448E+01
5.02740882409E+08	-5.59124863959E-02	-3.88976431260E+01	-9.57708772189E+01	+1.04580941990E+02	-8.56669364730E+01	-1.16351714450E+02	-6.65022679530E-02	-3.96544041828E+01
5.02990797338E+08	-5.28443972688E-02	-3.89245439763E+01	-9.50698929997E+01	+1.51940331734E+02	-8.90623656133E+01	+3.17022145417E+00	-6.19705401351E-02	-3.96600357370E+01
5.03240836501E+08	-5.38198209998E-02	-3.89652045674E+01	-9.81357433353E+01	+5.82002173649E+01	-9.21393263809E+01	-1.35175996576E+01	-5.99802854646E-02	-3.96605792999E+01
5.03490999959E+08	-5.59105507735E-02	-3.89840159786E+01	-9.44669897991E+01	-3.83089139812E+01	-9.42742497676E+01	+4.78604881749E+01	-5.66126715551E-02	-3.97535668510E+01
5.03741287775E+08	-5.74800396369E-02	-3.90360516024E+01	-9.50978051326E+01	-1.11113709582E+02	-9.60792807918E+01	+1.28156843463E+02	-5.92965406107E-02	-3.97565367215E+01
5.03991700010E+08	-5.06255606049E-02	-3.89769860892E+01	-8.81381842423E+01	+1.51007893768E+02	-8.56513080665E+01	-1.76529423297E+02	-6.14952494290E-02	-3.97048389241E+01
5.04242236726E+08	-5.05780920477E-02	-3.90519994054E+01	-9.62265846072E+01	-1.63234982547E+02	-9.03622853095E+01	+1.33291085562E+02	-6.36406614351E-02	-3.97697301568E+01
5.04492897985E+08	-5.66487559301E-02	-3.90284971953E+01	-9.19491920456E+01	+2.38417501843E+01	-9.40158064271E+01	-7.22573410216E+01	-6.81043763260E-02	-3.97955296364E+01
5.04743683850E+08	-5.75358899466E-02	-3.90597724623E+01	-8.41731503052E+01	+1.57824314559E+01	-1.19650794061E+02	+1.56625248250E+02	-6.34023038631E-02	-3.98195992832E+01
5.04994594381E+08	-5.23359734065E-02	-3.90729761054E+01	-9.75956750328E+01	+3.31206927735E+01	-8.90392340008E+01	-1.47176328945E+02	-5.43733890107E-02	-3.98459676699E+01
5.05245629641E+08	-5.48722317402E-02	-3.91139733382E+01	-9.14779206626E+01	+9.61153686351E+01	-9.42591075444E+01	+1.91351391013E-01	-5.98685050949E-02	-3.98411848587E+01
5.05496789691E+08	-5.31359563277E-02	-3.91127504365E+01	-9.00331620003E+01	-7.76129506527E+01	-9.83910717804E+01	-1.49252297470E+02	-6.81519061215E-02	-3.99062768191E+01
5.05748074595E+08	-5.95469932994E-02	-3.91001881837E+01	-1.13843637360E+02	+6.18089963343E+01	-9.40585972311E+01	+3.19173427282E+01	-6.22371083921E-02	-3.98540084291E+01
5.05999484413E+08	-5.95964118445E-02	-3.91204878587E+01	-8.49152538114E+01	-1.85776402208E+01	-9.16350171681E+01	+8.04147847163E+01	-6.44832560304E-02	-3.99034779998E+01
5.06251019209E+08	-5.70733054682E-02	-3.91657568157E+01	-8.90014948274E+01	+1.11958876906E+02	-9.20136754454E+01	+3.46756877435E+01	-6.17758343939E-02	-3.99420995281E+01
5.06502679044E+08	-5.98312943519E-02	-3.91654905617E+01	-9.11430247951E+01	-9.36569642787E+01	-9.06338761950E+01	+1.53396365168E+02	-6.05538093930E-02	-3.99995179508E+01
5.06754463980E+08	-5.94769842175E-02	-3.92549913992E+01	-9.10002328126E+01	+1.03451161683E+02	-1.06903008478E+02	+3.30403968186E+01	-6.74945916982E-02	-3.99463740191E+01
5.07006374079E+08	-5.91654209731E-02	-3.92028077796E+01	-9.72917442477E+01	-1.52999306086E+01	-9.61403705491E+01	+9.20276235260E+00	-6.15506475662E-02	-3.99644061593E+01
5.07258409405E+08	-6.08873486844E-02	-3.92205550560E+01	-9.38367377090E+01	-1.48819279116E+02	-9.69414261042E+01	+1.46446938972E+02	-6.36091286222E-02	-4.00325663022E+01
5.07510570018E+08	-6.10212152981E-02	-3.92339534393E+01	-8.63636444976E+01	+3.88572174176E+01	-9.07913657154E+01	-1.71137639254E+02	-5.66879611111E-02	-4.00288633034E+01
5.07762855982E+08	-6.53884870020E-02	-3.92906058175E+01	-9.08497446009E+01	+9.74577964534E+01	-9.11633300512E+01	+1.71472590038E+01	-6.07399342319E-02	-4.00379449481E+01
5.08015267358E+08	-5.83439153053E-02	-3.92903509929E+01	-8.71678480546E+01	+1.62533360432E+01	-9.02946935544E+01	+1.78034550232E+02	-5.91375565831E-02	-4.00423108681E+01
5.08267804209E+08	-6.10909115059E-02	-3.93372625183E+01	-9.05562574659E+01	+1.38951231728E+02	-8.79389062226E+01	-6.71795033828E+01	-6.42433208286E-02	-4.00974747926E+01
5.08520466597E+08	-5.48904228456E-02	-3.93207502968E+01	-8.98710202739E+01	+5.87151647720E+01	-9.38758412923E+01	+9.65802595287E+01	-6.36969260576E-02	-4.00992416800E+01
5.08773254585E+08	-5.88055139116E-02	-3.93430871077E+01	-8.84104136662E+01	-7.71841606383E+01	-8.48420694570E+01	-1.66971917593E+02	-5.74164556820E-02	-4.01170385537E+01
5.09026168235E+08	-5.81356960818E-02	-3.93930978346E+01	-8.74545113806E+01	+1.01229771419E+02	-9.87457837676E+01	+4.31784032163E+01	-6.55429758727E-02	-4.01663838526E+01
5.09279207610E+08	-6.36125116026E-02	-3.94079333639E+01	-9.35011031170E+01	+2.29337814035E+00	-1.05101937532E+02	+1.63177637566E+02	-6.01334810393E-02	-4.01394470248E+01
5.09532372772E+08	-5.83276530966E-02	-3.93732216274E+01	-9.02492506722E+01	+2.51979938127E+01	-8.53471846388E+01	-2.05485286715E+01	-5.85468729499E-02	-4.01771918383E+01
5.09785663784E+08	-5.84261683796E-02	-3.94585769312E+01	-9.06278134604E+01	+1.33967078181E+02	-8.63279230694E+01	+6.94031998509E+01	-6.33622422868E-02	-4.01965326026E+01
5.10039080707E+08	-5.91485771484E-02	-3.94478219080E+01	-8.78630778580E+01	+3.92087789858E+01	-9.67876944654E+01	+1.15044282820E+01	-6.22089581406E-02	-4.02208853405E+01
5.10292623606E+08	-6.76057665586E-02	-3.94611584281E+01	-8.90457165915E+01	+8.16944002440E+00	-9.70213501407E+01	+1.04517638242E+02	-6.18582100719E-02	-4.02287261394E+01
5.10546292542E+08	-5.45029824304E-02	-3.95258848066E+01	-9.44452424622E+01	-1.51039964623E+02	-9.27110532007E+01	-1.57288029766E+02	-6.03185389068E-02	-4.02997889769E+01
5.10800087578E+08	-6.13022042588E-02	-3.95167381531E+01	-9.45296042193E+01	-1.65205095079E+02	-8.66878456225E+01	-1.62046851219E+02	-6.46061251247E-02	-4.02748958825E+01
5.11054008776E+08	-6.16637585696E-02	-3.95433840647E+01	-9.13272728415E+01	-1.34914937253E+02	-9.56256622837E+01	+7.39879052972E+01	-6.06633789718E-02	-4.03034528089E+01
5.11308056201E+08	-5.84394524497E-02	-3.95250795294E+01	-9.03384413829E+01	-5.38517072242E+01	-8.56486986263E+01	-3.86303725678E+01	-6.53838415444E-02	-4.03104820770E+01
5.11562229913E+08	-5.16811751689E-02	-3.95732249601E+01	-8.82023550537E+01	-1.57419774160E+01	-8.67526014628E+01	-1.68820120664E+02	-6.78364750159E-02	-4.03063235438E+01
5.11816529976E+08	-5.97030563733E-02	-3.95929910346E+01	-9.76891542930E+01	-1.08340512827E+02	-9.65370684770E+01	+8.29886808396E+01	-6.81608984709E-02	-4.03284588881E+01
5.12070956453E+08	-5.70910102319E-02	-3.96482052841E+01	-9.54215793969E+01	-1.23410553960E+02	-9.88619238083E+01	+7.35221498232E+01	-6.40863308261E-02	-4.03760335027E+01
5.12325509407E+08	-5.43462391117E-02	-3.96162005873E+01	-1.02959183319E+02	-9.41840882653E+01	-9.44043094804E+01	-6.97265913631E+01	-6.50446222922E-02	-4.03831211710E+01
5.12580188900E+08	-6.03671186926E-02	-3.96780181335E+01	-8.51370812378E+01	-4.34689737371E+01	-9.73009344714E+01	-1.59560652506E+02	-6.30240264095E-02	-4.04243518759E+01
5.12834994996E+08	-6.02839693594E-02	-3.96801450590E+01	-9.32198819791E+01	-3.47094919979E+01	-8.50151022722E+01	+4.98601423875E+01	-5.97328273401E-02	-4.04057887879E+01
5.13089927757E+08	-5.61981571011E-02	-3.97105902809E+01	-8.59292775760E+01	-4.31375171511E+01	-9.06443497007E+01	-1.09931973983E+02	-7.11768245610E-02	-4.04484211752E+01
5.13344987246E+08	-5.37650294996E-02	-3.97307704316E+01	-8.92828444299E+01	+1.02335650741E+01	-9.21588453844E+01	+5.56362663061E+01	-6.84731239467E-02	-4.05079447045E+01
5.13600173527E+08	-5.57282808853E-02	-3.97291913609E+01	-9.29016467106E+01	+1.79777108796E+02	-8.95098361308E+01	+1.25653401080E+02	-6.01118188735E-02	-4.04556925634E+01
5.13855486662E+08	-5.72791277264E-02	-3.97866968708E+01	-9.45877743179E+01	+4.07366200735E+01	-8.98687958097E+01	+1.36707241536E+02	-6.49649792267E-02	-4.05054858796E+01
5.14110926714E+08	-6.20031944215E-02	-3.97531908657E+01	-8.52715588748E+01	+5.19504806925E+01	-9.65240262882E+01	-1.01508347209E+02	-6.58303772996E-02	-4.05082655287E+01
5.14366493747E+08	-5.76835157435E-02	-3.97838970694E+01	-9.00745053238E+01	+1.51458613073E+01	-9.15809894625E+01	-2.88134162187E+00	-6.67984445036E-02	-4.05795653379E+01
5.14622187824E+08	-6.57614987029E-02	-3.98349932448E+01	-9.37059081142E+01	+3.40270182421E+01	-9.64188615188E+01	-7.35042164753E+01	-6.92259377289E-02	-4.05437619401E+01
5.14878009007E+08	-5.95530758336E-02	-3.98320221344E+01	-8.92835021450E+01	-1.98143840082E+01	-9.05666384826E+01	-2.94600342444E+01	-6.13289240189E-02	-4.05923001566E+01
5.15133957360E+08	-6.02832823242E-02	-3.99004454178E+01	-9.10542608716E+01	+1.64848008958E+02	-8.92515724049E+01	+1.62657374781E+02	-6.31316947489E-02	-4.06046201258E+01
5.15390032947E+08	-5.76646286112E-02	-3.98811009953E+01	-9.06700777293E+01	+9.16200630224E-01	-9.62004009605E+01	-1.20435888858E+02	-6.92691225464E-02	-4.06263822333E+01
5.15646235829E+08	-5.68906521041E-02	-3.98978349313E+01	-9.28818402146E+01	-5.92959491215E+01	-8.94328219188E+01	+1.63772635328E+02	-6.66471944443E-02	-4.06402409461E+01
5.15902566072E+08	-5.94320327501E-02	-3.98726867224E+01	-8.56908662388E+01	-7.28400625434E+01	-9.63879296889E+01	-1.09990782716E+02	-6.22532502741E-02	-4.06690809739E+01
5.16159023737E+08	-5.95299775866E-02	-3.99569602546E+01	-9.41577127559E+01	+2.75738625407E+01	-9.34943068851E+01	+8.35203507162E+01	-6.69150039343E-02	-4.06923289226E+01
5.16415608889E+08	-6.36295125308E-02	-3.99270819848E+01	-9.39356324548E+01	-4.37349877077E+01	-9.08167851321E+01	-1.69894028629E+02	-6.38689585327E-02	-4.06898384147E+01
5.16672321591E+08	-6.10586775357E-02	-3.99605876977E+01	-8.48877035065E+01	+6.39630030923E+01	-9.57331670976E+01	-1.33175894727E+02	-7.00083589817E-02	-4.07049022875E+01
5.16929161905E+08	-5.77135364835E-02	-3.99683488180E+01	-9.65561323422E+01	+1.59098133943E+02	-1.02343795542E+02	-1.65291507663E+02	-6.52330472752E-02	-4.07444032206E+01
5.17186129897E+08	-5.88857367964E-02	-4.00035958326E+01	-8.94505702133E+01	-3.40590769154E+01	-9.55913857072E+01	+1.34238752994E+02	-7.24332621157E-02	-4.07513913636E+01
5.17443225628E+08	-5.97499185342E-02	-4.00919442443E+01	-1.02302735987E+02	+1.09662428634E+02	-9.43145494221E+01	+7.03001134488E+01	-6.88461900154E-02	-4.07673989131E+01
5.17700449163E+08	-6.83412231492E-02	-4.00090781776E+01	-9.12934130683E+01	-6.41165979426E+00	-9.07196700646E+01	-6.92777159820E+01	-6.54503546897E-02	-4.07945872990E+01
5.17957800564E+08	-5.67360194103E-02	-4.00649962779E+01	-8.37789925299E+01	-1.30212013662E+02	-8.97786311711E+01	-9.08240571267E+01	-7.13904353979E-02	-4.08286044842E+01
5.18215279897E+08	-6.42231844083E-02	-4.00601304114E+01	-8.86106350456E+01	+1.61680412272E+02	-1.04503203772E+02	+3.64663544160E+01	-6.66363476979E-02	-4.08300466861E+01
5.18472887224E+08	-5.75072042220E-02	-4.00984348756E+01	-1.07930513290E+02	+4.72924530828E+01	-8.85635039176E+01	-1.67573412936E+02	-6.46560407693E-02	-4.08509505388E+01
5.18730622608E+08	-6.03875818555E-02	-4.01030459928E+01	-8.75085601248E+01	-6.63412648681E+01	-9.28088805337E+01	+1.12007058401E+02	-6.94257006216E-02	-4.09236033637E+01
5.18988486114E+08	-6.02263166389E-02	-4.01605076864E+01	-9.40877628774E+01	+3.74077115685E+01	-9.11969172356E+01	+1.09392557161E+02	-6.75030672313E-02	-4.08243280496E+01
5.19246477806E+08	-6.10612152609E-02	-4.01421922594E+01	-8.68543132204E+01	+1.32786712793E+02	-9.10794339781E+01	+1.18336911555E+02	-6.97005984455E-02	-4.09328785491E+01
5.19504597746E+08	-6.01901748479E-02	-4.01491045893E+01	-1.04497062521E+02	+1.47155772988E+02	-8.98041319553E+01	-1.05288578109E+02	-6.30207436820E-02	-4.09549922646E+01
5.19762845999E+08	-6.69177622692E-02	-4.01684616280E+01	-8.57907065585E+01	-1.47221204874E+02	-9.61023260546E+01	+1.64859082719E+02	-6.44893643909E-02	-4.09595084416E+01
5.20021222628E+08	-6.92630996421E-02	-4.02147103954E+01	-9.15372950280E+01	-2.84886932334E+01	-9.66004008805E+01	-1.48181726763E+02	-6.85311602764E-02	-4.09662483665E+01
5.20279727698E+08	-6.80219602841E-02	-4.02860637054E+01	-9.65500044323E+01	+7.55895817175E+01	-8.89834573670E+01	-5.24973269301E+01	-7.26808084570E-02	-4.09988860942E+01
5.20538361271E+08	-6.19636848813E-02	-4.02744700589E+01	-9.50853247124E+01	+1.04277656429E+02	-9.59354066555E+01	-1.05430348236E+02	-6.67203507476E-02	-4.09817779345E+01
5.20797123413E+08	-5.95887939247E-02	-4.03134082057E+01	-8.93481374889E+01	+1.08142291957E+02	-9.24244159603E+01	+4.89019474400E+01	-7.49198469577E-02	-4.10304749395E+01
5.21056014187E+08	-6.53504792734E-02	-4.03625143487E+01	-9.03393649938E+01	-1.55080949053E+02	-9.35553855719E+01	-1.74405154186E+02	-6.61877312743E-02	-4.10786597390E+01
5.21315033656E+08	-6.20659523820E-02	-4.03354162242E+01	-9.15326621887E+01	+2.52727204570E+01	-9.12191849564E+01	+1.01669519937E+02	-6.86320374598E-02	-4.11091002901E+01
5.21574181886E+08	-6.28777017486E-02	-4.03364583442E+01	-9.02683760953E+01	+1.13757994717E+01	-1.01454969600E+02	-1.11755089029E-01	-7.22120346246E-02	-4.10753317599E+01
5.21833458939E+08	-6.68266687173E-02	-4.03638991395E+01	-9.07070750016E+01	+1.50743675654E+02	-9.28815786097E+01	+5.33305952948E+01	-7.44847417178E-02	-4.11513932779E+01
5.22092864880E+08	-6.85778176369E-02	-4.03891867414E+01	-1.07830997397E+02	-9.40483557428E+01	-9.74031271671E+01	+9.06049771410E+01	-6.36713394134E-02	-4.11748160474E+01
5.22352399773E+08	-6.24689556969E-02	-4.04222149988E+01	-9.56898999150E+01	-8.40907007601E+01	-9.78788980474E+01	-1.46232955470E+02	-7.08109575321E-02	-4.11793479018E+01
5.22612063682E+08	-6.06548425925E-02	-4.04364267464E+01	-8.83614767060E+01	+3.38075530493E+01	-8.97205714206E+01	-1.05533759327E+02	-6.91519214830E-02	-4.11757104023E+01
5.22871856671E+08	-6.56653041411E-02	-4.04322891078E+01	-9.23819745761E+01	+1.24989565870E+01	-8.80593126361E+01	+1.75231515341E+01	-7.14381760319E-02	-4.11664576163E+01
5.23131778805E+08	-5.98161306020E-02	-4.04869273433E+01	-8.99452674572E+01	-2.37765472477E+01	-9.15819670772E+01	-1.47348527810E+02	-6.92747587264E-02	-4.12343115609E+01
5.23391830147E+08	-5.85512232802E-02	-4.04807435999E+01	-9.03436927639E+01	+4.16400575430E+01	-9.91227691237E+01	-4.03221246187E+00	-6.01218614500E-02	-4.12586988043E+01
5.23652010762E+08	-5.92014343376E-02	-4.04667101303E+01	-8.95799023370E+01	+1.56185247560E+02	-9.77187101027E+01	+9.35948558986E+01	-6.54572254804E-02	-4.12624611216E+01
5.23912320714E+08	-5.84610541132E-02	-4.05386514280E+01	-9.02483807354E+01	-7.67792590476E+01	-1.02109291616E+02	+1.29938293573E+02	-6.63015299679E-02	-4.13191279992E+01
5.24172760067E+08	-6.57824808950E-02	-4.05685867884E+01	-9.18428856084E+01	-1.59645151328E+02	-1.11634806825E+02	-1.54433324201E+02	-6.70567208703E-02	-4.12925960885E+01
5.24433328886E+08	-6.08094215367E-02	-4.05772039764E+01	-8.56022309685E+01	-2.86733285401E+01	-9.04441408529E+01	+3.73960633819E+01	-6.85191720365E-02	-4.13118331081E+01
5.24694027235E+08	-6.72767154458E-02	-4.06329152733E+01	-8.69475011668E+01	-2.71446514105E+01	-8.80761137643E+01	+1.72652896597E+02	-5.85679470859E-02	-4.13663490512E+01
5.24954855178E+08	-6.26990164614E-02	-4.06045316893E+01	-9.49831123565E+01	-1.14446310498E+02	-9.10094845973E+01	+1.03085939146E+02	-6.04975564708E-02	-4.13717058617E+01
5.25215812781E+08	-6.31846125094E-02	-4.06583274666E+01	-1.04345952660E+02	+1.62913996133E+02	-8.95698459804E+01	+8.98005099813E+01	-7.58254517016E-02	-4.13391306685E+01
5.25476900106E+08	-6.81616388998E-02	-4.06874685327E+01	-9.20781533539E+01	-8.69995100509E+01	-1.01823954529E+02	+1.49065643063E+02	-7.01157281828E-02	-4.14127095654E+01
5.25738117220E+08	-6.67212756907E-02	-4.07009074839E+01	-8.85719621070E+01	+5.53927110697E+01	-9.23954389778E+01	-5.48802837376E+01	-7.04215049047E-02	-4.13961077456E+01
5.25999464185E+08	-6.12812729627E-02	-4.07405612458E+01	-9.21119090628E+01	-5.13043071595E+01	-9.27923186222E+01	+1.29612625390E+02	-7.77884107632E-02	-4.14639088482E+01
5.26260941068E+08	-6.96038811990E-02	-4.07000192458E+01	-1.06177515756E+02	-1.00091391995E+02	-9.15680425727E+01	+1.22597560501E+01	-6.55726603073E-02	-4.14711873468E+01
5.26522547932E+08	-6.36632218660E-02	-4.07727774718E+01	-9.14718759797E+01	-1.65696348930E+02	-9.14893513619E+01	-1.49594943504E+02	-6.60528542729E-02	-4.14495636879E+01
5.26784284841E+08	-6.11886673012E-02	-4.07839775555E+01	-9.20146030201E+01	-1.63956718653E+01	-9.87095577610E+01	-1.41716892794E+02	-6.75861109809E-02	-4.15119258173E+01
5.27046151862E+08	-6.58097109704E-02	-4.07766456659E+01	-9.87520110807E+01	+6.58406741021E+01	-9.35299698156E+01	-5.43960180312E+01	-7.03183265519E-02	-4.15225915960E+01
5.27308149058E+08	-6.16309856504E-02	-4.08499146494E+01	-9.11271002961E+01	+9.14295494210E+01	-8.63984493785E+01	+2.32299011705E+01	-6.44332861737E-02	-4.15863899943E+01
5.27570276494E+08	-6.49305319855E-02	-4.08102939275E+01	-9.19992920887E+01	+1.30566691934E+02	-9.39529036626E+01	-1.24370100545E+02	-7.85958244464E-02	-4.15428390973E+01
5.27832534235E+08	-6.07689402574E-02	-4.07895589341E+01	-8.98199526065E+01	-5.89903112402E+01	-1.06451463364E+02	-1.50358193107E+02	-6.36000477407E-02	-4.15629830439E+01
5.28094922345E+08	-6.78990713859E-02	-4.08776830555E+01	-9.86102223831E+01	+1.18406682222E+02	-9.84877987261E+01	-6.88129418610E+01	-6.82348900630E-02	-4.16540969283E+01
5.28357440890E+08	-7.40702131304E-02	-4.08662487888E+01	-8.95000868712E+01	-6.32396797236E+01	-9.11309844179E+01	-1.26696232925E+02	-7.63787874503E-02	-4.16145943623E+01
5.28620089934E+08	-6.87000461188E-02	-4.08873383559E+01	-8.75761495318E+01	-5.11623058424E+01	-9.24192805108E+01	+1.68973559008E+02	-6.57743597673E-02	-4.16330058779E+01
5.28882869543E+08	-6.31080831529E-02	-4.09545034071E+01	-9.52970305499E+01	+1.50411549765E+02	-1.00069857597E+02	-1.24773353314E+02	-7.23186063072E-02	-4.16868204260E+01
5.29145779780E+08	-6.95579863624E-02	-4.09626232704E+01	-8.92292411110E+01	+1.22082674896E+02	-9.02492932706E+01	+6.25302811112E+01	-7.52066017273E-02	-4.17316758772E+01
5.29408820711E+08	-6.28841240580E-02	-4.09670759476E+01	-9.60775995079E+01	+8.19106891687E+01	-9.76800321484E+01	+3.99615112346E+01	-7.00621999779E-02	-4.17523721453E+01
