# Hz S DB R 50
! CMT, C2409, 19096212, 19.2.3/2
! Date: 3/29/2022 2:35:00 AM
! Data: Format (Calibration Info)
! Freq	S11:dB/Ang(F2)	S21:dB/Ang(F2)	S12:dB/Ang(F2)	S22:dB/Ang(F2)
5.00000000000E+08	-3.55824494056E+01	+2.54217322051E+01	-8.20229757550E-01	-1.06828325975E+02	-8.11933661012E-01	-1.06816262745E+02	-5.71314344157E+01	+1.08655219007E+02
5.00248552423E+08	-3.56341759233E+01	+2.64839177342E+01	-8.20236253152E-01	-1.07065939920E+02	-8.13087389271E-01	-1.07040932740E+02	-5.58521205633E+01	+1.22024581234E+02
5.00497228402E+08	-3.57304563064E+01	+2.77487240081E+01	-8.19799553922E-01	-1.07288254053E+02	-8.12524787332E-01	-1.07272498999E+02	-5.47676948703E+01	+1.31478989586E+02
5.00746028000E+08	-3.58287637274E+01	+2.86319058168E+01	-8.21089058109E-01	-1.07525392539E+02	-8.12256695611E-01	-1.07507912748E+02	-5.33717625708E+01	+1.37436117405E+02
5.00994951277E+08	-3.59499040787E+01	+2.95267156369E+01	-8.19285900111E-01	-1.07761926017E+02	-8.13077628019E-01	-1.07734547341E+02	-5.20866353200E+01	+1.43501445519E+02
5.01243998295E+08	-3.60227528819E+01	+3.07164176177E+01	-8.21028271873E-01	-1.07992210912E+02	-8.12615692022E-01	-1.07976098006E+02	-5.10494620766E+01	+1.46458448924E+02
5.01493169115E+08	-3.60919978030E+01	+3.19886177810E+01	-8.21149348811E-01	-1.08224450413E+02	-8.12819769776E-01	-1.08199607417E+02	-4.98954374325E+01	+1.49288249959E+02
5.01742463799E+08	-3.61835181879E+01	+3.28394100441E+01	-8.20203066024E-01	-1.08455870537E+02	-8.13128389275E-01	-1.08430370497E+02	-4.89301014115E+01	+1.51685236923E+02
5.01991882409E+08	-3.62351963026E+01	+3.43391468338E+01	-8.19796095453E-01	-1.08684019950E+02	-8.13839884811E-01	-1.08665432097E+02	-4.82418455017E+01	+1.53692891548E+02
5.02241425007E+08	-3.63004757063E+01	+3.54708348882E+01	-8.21979132032E-01	-1.08922115699E+02	-8.13774275660E-01	-1.08897443739E+02	-4.74118087590E+01	+1.54932303728E+02
5.02491091653E+08	-3.63476107592E+01	+3.65986361852E+01	-8.21744066021E-01	-1.09153997238E+02	-8.13845747116E-01	-1.09137740411E+02	-4.67327383783E+01	+1.56532990248E+02
5.02740882409E+08	-3.64389867826E+01	+3.75318415006E+01	-8.22017234668E-01	-1.09388279352E+02	-8.14963199607E-01	-1.09358032800E+02	-4.60453656480E+01	+1.56995817486E+02
5.02990797338E+08	-3.64876315618E+01	+3.90066130473E+01	-8.22366511434E-01	-1.09620102311E+02	-8.14439970272E-01	-1.09598893199E+02	-4.53287454327E+01	+1.58011109493E+02
5.03240836501E+08	-3.65660213356E+01	+4.01842924350E+01	-8.22253514868E-01	-1.09848233254E+02	-8.15353933628E-01	-1.09821609437E+02	-4.47645056928E+01	+1.58229227270E+02
5.03490999959E+08	-3.65623718242E+01	+4.12201601080E+01	-8.23239763611E-01	-1.10080834615E+02	-8.14087079297E-01	-1.10070070869E+02	-4.42233498198E+01	+1.59141893082E+02
5.03741287775E+08	-3.66170659653E+01	+4.28159081863E+01	-8.23203003414E-01	-1.10322307440E+02	-8.15524201326E-01	-1.10297137786E+02	-4.37019413483E+01	+1.59746391791E+02
5.03991700010E+08	-3.66486078325E+01	+4.43577079363E+01	-8.24063892032E-01	-1.10556069025E+02	-8.16003971942E-01	-1.10534898307E+02	-4.32605359082E+01	+1.60902379730E+02
5.04242236726E+08	-3.66480285449E+01	+4.55317603685E+01	-8.24400544469E-01	-1.10786051178E+02	-8.15549326070E-01	-1.10761035636E+02	-4.28059617138E+01	+1.60659667011E+02
5.04492897985E+08	-3.66760835680E+01	+4.65726017597E+01	-8.24520806176E-01	-1.11025424669E+02	-8.17478032904E-01	-1.10989955918E+02	-4.23185410694E+01	+1.61277388349E+02
5.04743683850E+08	-3.67191807922E+01	+4.81776978996E+01	-8.25326883694E-01	-1.11255788403E+02	-8.15463158283E-01	-1.11230440054E+02	-4.20236116317E+01	+1.61292352932E+02
5.04994594381E+08	-3.67159300880E+01	+4.93550161020E+01	-8.24477771452E-01	-1.11491911469E+02	-8.17238786589E-01	-1.11463962390E+02	-4.15605224458E+01	+1.61402016698E+02
5.05245629641E+08	-3.67239062710E+01	+5.06385560933E+01	-8.24849103947E-01	-1.11723966445E+02	-8.18054719887E-01	-1.11707013816E+02	-4.11666104897E+01	+1.61740509739E+02
5.05496789691E+08	-3.66844512126E+01	+5.19120831502E+01	-8.25002043338E-01	-1.11959445243E+02	-8.19256735119E-01	-1.11934474606E+02	-4.07708023522E+01	+1.61807916180E+02
5.05748074595E+08	-3.66644633598E+01	+5.34187578513E+01	-8.26544354113E-01	-1.12199529794E+02	-8.18504446383E-01	-1.12170488865E+02	-4.04267576015E+01	+1.62184175575E+02
5.05999484413E+08	-3.66469472519E+01	+5.48793843150E+01	-8.27514550300E-01	-1.12424485376E+02	-8.17302940197E-01	-1.12397821444E+02	-4.00612580175E+01	+1.62029908145E+02
5.06251019209E+08	-3.66340570071E+01	+5.61447836707E+01	-8.26238883605E-01	-1.12661523835E+02	-8.18230798434E-01	-1.12636161170E+02	-3.97850956736E+01	+1.61911670205E+02
5.06502679044E+08	-3.65888855557E+01	+5.73415754995E+01	-8.26804837908E-01	-1.12889987175E+02	-8.18257100809E-01	-1.12874878043E+02	-3.94753312799E+01	+1.62001536457E+02
5.06754463980E+08	-3.65526589440E+01	+5.85200817544E+01	-8.27238029138E-01	-1.13122202879E+02	-8.18273748206E-01	-1.13102448406E+02	-3.91061153968E+01	+1.62055688917E+02
5.07006374079E+08	-3.65582580480E+01	+5.99548206098E+01	-8.27484134955E-01	-1.13357237909E+02	-8.19548609700E-01	-1.13344808107E+02	-3.87872261182E+01	+1.62159737379E+02
5.07258409405E+08	-3.64699294252E+01	+6.10432834496E+01	-8.27542529201E-01	-1.13597210823E+02	-8.18851920372E-01	-1.13563910494E+02	-3.84997088315E+01	+1.61963413094E+02
5.07510570018E+08	-3.63937034268E+01	+6.27064601278E+01	-8.28875752284E-01	-1.13840913800E+02	-8.18498443811E-01	-1.13813193027E+02	-3.81535513070E+01	+1.62164265667E+02
5.07762855982E+08	-3.63569456458E+01	+6.38191275303E+01	-8.28222957909E-01	-1.14070254826E+02	-8.19712354323E-01	-1.14041725306E+02	-3.80079051153E+01	+1.61675422627E+02
5.08015267358E+08	-3.63070914975E+01	+6.50220085048E+01	-8.29210799011E-01	-1.14303424833E+02	-8.19958663607E-01	-1.14281985633E+02	-3.76822100235E+01	+1.62000792819E+02
5.08267804209E+08	-3.62229211284E+01	+6.62411372186E+01	-8.30285758982E-01	-1.14536371137E+02	-8.20771779346E-01	-1.14525474192E+02	-3.74686138336E+01	+1.61702105811E+02
5.08520466597E+08	-3.61197668926E+01	+6.74315941627E+01	-8.30454156308E-01	-1.14779050941E+02	-8.19635378925E-01	-1.14758357458E+02	-3.71839753061E+01	+1.61589659747E+02
5.08773254585E+08	-3.60368288905E+01	+6.86225207277E+01	-8.30716623554E-01	-1.15009216495E+02	-8.20307303184E-01	-1.14988490382E+02	-3.69461274055E+01	+1.61753465511E+02
5.09026168235E+08	-3.59233131950E+01	+6.96630459420E+01	-8.29156633542E-01	-1.15249449978E+02	-8.21746940434E-01	-1.15223897733E+02	-3.66773578020E+01	+1.61444504850E+02
5.09279207610E+08	-3.58801186654E+01	+7.08115942864E+01	-8.30462858167E-01	-1.15476152735E+02	-8.22002467870E-01	-1.15464218946E+02	-3.64710764240E+01	+1.61478862520E+02
5.09532372772E+08	-3.57568405461E+01	+7.19497825331E+01	-8.32903576234E-01	-1.15722148384E+02	-8.21440647386E-01	-1.15703071204E+02	-3.62715305103E+01	+1.61393100440E+02
5.09785663784E+08	-3.56838500987E+01	+7.29780711546E+01	-8.31394566151E-01	-1.15946313231E+02	-8.22792402557E-01	-1.15933003966E+02	-3.60065417283E+01	+1.61106147859E+02
5.10039080707E+08	-3.55538265602E+01	+7.39232877736E+01	-8.31599138685E-01	-1.16194382494E+02	-8.21945204696E-01	-1.16172517861E+02	-3.57768856710E+01	+1.61412547940E+02
5.10292623606E+08	-3.54203468205E+01	+7.49280969678E+01	-8.31045891242E-01	-1.16434065541E+02	-8.22645545227E-01	-1.16399309740E+02	-3.56003463370E+01	+1.60976753313E+02
5.10546292542E+08	-3.53532404825E+01	+7.58916375069E+01	-8.32809659755E-01	-1.16667567278E+02	-8.23530169756E-01	-1.16641603606E+02	-3.53921217787E+01	+1.60822055868E+02
5.10800087578E+08	-3.52392639286E+01	+7.69583383646E+01	-8.32570085650E-01	-1.16898208645E+02	-8.21879163982E-01	-1.16881547198E+02	-3.51897515348E+01	+1.60798005566E+02
5.11054008776E+08	-3.51197042331E+01	+7.76297009726E+01	-8.34012028108E-01	-1.17146672573E+02	-8.23362491002E-01	-1.17122120523E+02	-3.49989899401E+01	+1.60645619405E+02
5.11308056201E+08	-3.50394799188E+01	+7.86740732357E+01	-8.33186880059E-01	-1.17370370243E+02	-8.24547032966E-01	-1.17358604648E+02	-3.47726694801E+01	+1.60340060867E+02
5.11562229913E+08	-3.49423232966E+01	+7.97304362347E+01	-8.33426706776E-01	-1.17609430452E+02	-8.23392908587E-01	-1.17593354999E+02	-3.46211268650E+01	+1.60444837240E+02
5.11816529976E+08	-3.48029723074E+01	+8.02139685428E+01	-8.33626374919E-01	-1.17849391474E+02	-8.23668760733E-01	-1.17825115364E+02	-3.44121482970E+01	+1.60187721736E+02
5.12070956453E+08	-3.46765367363E+01	+8.10187684931E+01	-8.34994215830E-01	-1.18083535106E+02	-8.24360426428E-01	-1.18062776846E+02	-3.42369126897E+01	+1.59947018462E+02
5.12325509407E+08	-3.45759521839E+01	+8.19304043598E+01	-8.34439137305E-01	-1.18314376762E+02	-8.24791467799E-01	-1.18301321834E+02	-3.40530798461E+01	+1.59813584292E+02
5.12580188900E+08	-3.44649556620E+01	+8.26860860992E+01	-8.36454300718E-01	-1.18564126839E+02	-8.24678529137E-01	-1.18541082452E+02	-3.38757266900E+01	+1.59696751052E+02
5.12834994996E+08	-3.43495094593E+01	+8.32333581709E+01	-8.34428712336E-01	-1.18789580004E+02	-8.25035441299E-01	-1.18774917680E+02	-3.36956118416E+01	+1.59373364235E+02
5.13089927757E+08	-3.42015118103E+01	+8.43332497741E+01	-8.36161634349E-01	-1.19041004474E+02	-8.25408559738E-01	-1.19013353290E+02	-3.35223573195E+01	+1.59444818940E+02
5.13344987246E+08	-3.41029640195E+01	+8.49431618671E+01	-8.35586730454E-01	-1.19270774566E+02	-8.25811006182E-01	-1.19257244775E+02	-3.33657002856E+01	+1.59136827487E+02
5.13600173527E+08	-3.39972614104E+01	+8.53657729330E+01	-8.35966776767E-01	-1.19509059467E+02	-8.27967399165E-01	-1.19490714811E+02	-3.32373163541E+01	+1.59012212211E+02
5.13855486662E+08	-3.38349484750E+01	+8.60181534880E+01	-8.35180924245E-01	-1.19743712468E+02	-8.26759863044E-01	-1.19734048341E+02	-3.30239574783E+01	+1.58809389179E+02
5.14110926714E+08	-3.37450817550E+01	+8.67842578372E+01	-8.36321931036E-01	-1.19986289346E+02	-8.27236962458E-01	-1.19959848657E+02	-3.28900670404E+01	+1.58700043790E+02
5.14366493747E+08	-3.36277844307E+01	+8.71861040330E+01	-8.36160707441E-01	-1.20228659848E+02	-8.28640881668E-01	-1.20203539736E+02	-3.27422509571E+01	+1.58552439548E+02
5.14622187824E+08	-3.34715926479E+01	+8.77678474181E+01	-8.37847141624E-01	-1.20458660677E+02	-8.28320490141E-01	-1.20439249161E+02	-3.25968614686E+01	+1.58255474475E+02
5.14878009007E+08	-3.33507718732E+01	+8.84523105441E+01	-8.38818172591E-01	-1.20704205843E+02	-8.27489907638E-01	-1.20690921224E+02	-3.24129784182E+01	+1.58178440437E+02
5.15133957360E+08	-3.32204375012E+01	+8.88069819275E+01	-8.38188236476E-01	-1.20933771479E+02	-8.30845745089E-01	-1.20927605989E+02	-3.22725157995E+01	+1.57995004022E+02
5.15390032947E+08	-3.31175707538E+01	+8.93692060255E+01	-8.37613387280E-01	-1.21184915068E+02	-8.28970231435E-01	-1.21156670676E+02	-3.21645287373E+01	+1.57695225608E+02
5.15646235829E+08	-3.29948860967E+01	+8.97287404608E+01	-8.37989610651E-01	-1.21415487667E+02	-8.29820214228E-01	-1.21403821965E+02	-3.20103420536E+01	+1.57693910649E+02
5.15902566072E+08	-3.28833286771E+01	+9.02565655647E+01	-8.38562414614E-01	-1.21653604929E+02	-8.29066091125E-01	-1.21640227011E+02	-3.18885571800E+01	+1.57445878459E+02
5.16159023737E+08	-3.27451096110E+01	+9.07023751345E+01	-8.39297485638E-01	-1.21893241575E+02	-8.29984341948E-01	-1.21887165352E+02	-3.17207546153E+01	+1.57145197219E+02
5.16415608889E+08	-3.26307109401E+01	+9.11330522348E+01	-8.39816245372E-01	-1.22128447252E+02	-8.30482313732E-01	-1.22122795677E+02	-3.16077027131E+01	+1.57017931160E+02
5.16672321591E+08	-3.25241137974E+01	+9.16134781928E+01	-8.39616201574E-01	-1.22372153943E+02	-8.31801841622E-01	-1.22359057088E+02	-3.14440543697E+01	+1.56734962360E+02
5.16929161905E+08	-3.23895998634E+01	+9.18735089538E+01	-8.41334380555E-01	-1.22618898851E+02	-8.30246075197E-01	-1.22594433425E+02	-3.13048311713E+01	+1.56629635846E+02
5.17186129897E+08	-3.22884872981E+01	+9.22593045533E+01	-8.40638134831E-01	-1.22857106069E+02	-8.31254202500E-01	-1.22838559770E+02	-3.11766752989E+01	+1.56476373274E+02
5.17443225628E+08	-3.21651289183E+01	+9.26196161978E+01	-8.41409524127E-01	-1.23088009684E+02	-8.32471120937E-01	-1.23080476680E+02	-3.10583689723E+01	+1.56174351334E+02
5.17700449163E+08	-3.20407227182E+01	+9.28482604704E+01	-8.41427515787E-01	-1.23333531411E+02	-8.32852130697E-01	-1.23319834005E+02	-3.09430389923E+01	+1.55966913530E+02
5.17957800564E+08	-3.19157941779E+01	+9.32681379634E+01	-8.42177724676E-01	-1.23572062302E+02	-8.33335919438E-01	-1.23546092321E+02	-3.08282414077E+01	+1.55782557035E+02
5.18215279897E+08	-3.18276295270E+01	+9.35700032866E+01	-8.41530573606E-01	-1.23803939355E+02	-8.32859612139E-01	-1.23790956188E+02	-3.06664957534E+01	+1.55683917747E+02
5.18472887224E+08	-3.16964971227E+01	+9.37795924488E+01	-8.41712306892E-01	-1.24047362449E+02	-8.35172563049E-01	-1.24027635129E+02	-3.05779982406E+01	+1.55432459704E+02
5.18730622608E+08	-3.15810487270E+01	+9.39518314521E+01	-8.44136020191E-01	-1.24297914527E+02	-8.34312586298E-01	-1.24280240110E+02	-3.04356291186E+01	+1.55287896820E+02
5.18988486114E+08	-3.14777472145E+01	+9.43639833486E+01	-8.44200358757E-01	-1.24536528136E+02	-8.33715735520E-01	-1.24512351409E+02	-3.03156076979E+01	+1.55174619761E+02
5.19246477806E+08	-3.13587016737E+01	+9.45423321526E+01	-8.44695139840E-01	-1.24762267745E+02	-8.33712716221E-01	-1.24756534480E+02	-3.02032189428E+01	+1.54932126916E+02
5.19504597746E+08	-3.12319851047E+01	+9.48263762585E+01	-8.44135235039E-01	-1.25003808511E+02	-8.35773166502E-01	-1.24995744812E+02	-3.00984610008E+01	+1.54631540304E+02
5.19762845999E+08	-3.11356881440E+01	+9.50387766445E+01	-8.44513980944E-01	-1.25250833715E+02	-8.36119600594E-01	-1.25245899813E+02	-2.99880428272E+01	+1.54533182694E+02
5.20021222628E+08	-3.10139943802E+01	+9.51843391675E+01	-8.44587867842E-01	-1.25488544948E+02	-8.36731093742E-01	-1.25475153932E+02	-2.98724026854E+01	+1.54209403126E+02
5.20279727698E+08	-3.09226361018E+01	+9.54546385065E+01	-8.45216670184E-01	-1.25727397286E+02	-8.36374856320E-01	-1.25719248333E+02	-2.97395240405E+01	+1.53999518577E+02
5.20538361271E+08	-3.07931172885E+01	+9.54157498279E+01	-8.46500713579E-01	-1.25980684887E+02	-8.36443692967E-01	-1.25960733510E+02	-2.96414267704E+01	+1.53919082106E+02
5.20797123413E+08	-3.06990051842E+01	+9.57405760383E+01	-8.45936566621E-01	-1.26209218319E+02	-8.36291920142E-01	-1.26196293306E+02	-2.95422762399E+01	+1.53640215855E+02
5.21056014187E+08	-3.05901132143E+01	+9.59726670891E+01	-8.46804790802E-01	-1.26451384829E+02	-8.36885847166E-01	-1.26446264761E+02	-2.94263207526E+01	+1.53389884548E+02
5.21315033656E+08	-3.04972253320E+01	+9.60679452167E+01	-8.46685113178E-01	-1.26695179535E+02	-8.37683633240E-01	-1.26690239165E+02	-2.93247807373E+01	+1.53169314829E+02
5.21574181886E+08	-3.03921245315E+01	+9.61726509880E+01	-8.46564337897E-01	-1.26939872957E+02	-8.38803982287E-01	-1.26923527263E+02	-2.92214254931E+01	+1.53090026520E+02
5.21833458939E+08	-3.02618417927E+01	+9.64174029355E+01	-8.47537815539E-01	-1.27176178913E+02	-8.38958287276E-01	-1.27168453201E+02	-2.91029259894E+01	+1.52828853626E+02
5.22092864880E+08	-3.02064348475E+01	+9.65451608185E+01	-8.47674049966E-01	-1.27422622324E+02	-8.39317950989E-01	-1.27410846473E+02	-2.90210387303E+01	+1.52627743307E+02
5.22352399773E+08	-3.00773629076E+01	+9.64665067574E+01	-8.48791628053E-01	-1.27663812175E+02	-8.38745282924E-01	-1.27653078952E+02	-2.89064911567E+01	+1.52318730822E+02
5.22612063682E+08	-2.99941588557E+01	+9.66894753092E+01	-8.48599245874E-01	-1.27902999066E+02	-8.40269605806E-01	-1.27886275510E+02	-2.88187760266E+01	+1.52124423670E+02
5.22871856671E+08	-2.98859872197E+01	+9.68081418786E+01	-8.49166304892E-01	-1.28146269455E+02	-8.40486020763E-01	-1.28126207506E+02	-2.87101986095E+01	+1.51920238960E+02
5.23131778805E+08	-2.97842755434E+01	+9.68014891195E+01	-8.49903674771E-01	-1.28385746200E+02	-8.41426317490E-01	-1.28372755300E+02	-2.86246591124E+01	+1.51784153634E+02
5.23391830147E+08	-2.96992544677E+01	+9.70095335449E+01	-8.48779330587E-01	-1.28625766031E+02	-8.41286902296E-01	-1.28616634073E+02	-2.85288144737E+01	+1.51524313118E+02
5.23652010762E+08	-2.95874218890E+01	+9.70063968273E+01	-8.49316045048E-01	-1.28871855622E+02	-8.41013346517E-01	-1.28872791678E+02	-2.84252368411E+01	+1.51249918153E+02
5.23912320714E+08	-2.95017293805E+01	+9.70947365942E+01	-8.49737529479E-01	-1.29113088496E+02	-8.42635211015E-01	-1.29101417457E+02	-2.83378098119E+01	+1.51062005497E+02
5.24172760067E+08	-2.94115422248E+01	+9.72680508129E+01	-8.50328892434E-01	-1.29360051588E+02	-8.42403301823E-01	-1.29341675233E+02	-2.82519813138E+01	+1.50879653705E+02
5.24433328886E+08	-2.93175815509E+01	+9.72202469658E+01	-8.51389011424E-01	-1.29594641214E+02	-8.43043715802E-01	-1.29588493158E+02	-2.81528325152E+01	+1.50663139751E+02
5.24694027235E+08	-2.92269408936E+01	+9.74689215273E+01	-8.50735303696E-01	-1.29841577687E+02	-8.42899047337E-01	-1.29838827389E+02	-2.80694734325E+01	+1.50424604168E+02
5.24954855178E+08	-2.91219826516E+01	+9.73669834746E+01	-8.51046818371E-01	-1.30082863451E+02	-8.43570458783E-01	-1.30070372102E+02	-2.79898796134E+01	+1.50177371534E+02
5.25215812781E+08	-2.90345394758E+01	+9.74247780496E+01	-8.52739901907E-01	-1.30319840515E+02	-8.45019368856E-01	-1.30314144987E+02	-2.79075040532E+01	+1.49998728173E+02
5.25476900106E+08	-2.89630314539E+01	+9.73695453088E+01	-8.51796390433E-01	-1.30578002139E+02	-8.44479639336E-01	-1.30563059044E+02	-2.78012943215E+01	+1.49766788222E+02
5.25738117220E+08	-2.88605879512E+01	+9.73992464396E+01	-8.51967168960E-01	-1.30816284790E+02	-8.44468036212E-01	-1.30801137450E+02	-2.77115795261E+01	+1.49618178840E+02
5.25999464185E+08	-2.87780647454E+01	+9.74834429824E+01	-8.51779515837E-01	-1.31059643039E+02	-8.44673039404E-01	-1.31049314200E+02	-2.76332233630E+01	+1.49333645389E+02
5.26260941068E+08	-2.86810112064E+01	+9.73572472814E+01	-8.54075542202E-01	-1.31301052415E+02	-8.44756776324E-01	-1.31297211120E+02	-2.75495173113E+01	+1.49095800179E+02
5.26522547932E+08	-2.85911646959E+01	+9.73988844024E+01	-8.54798134088E-01	-1.31546349227E+02	-8.46358784972E-01	-1.31533792481E+02	-2.74681385224E+01	+1.48884948062E+02
5.26784284841E+08	-2.85092375839E+01	+9.74320146117E+01	-8.55878371796E-01	-1.31783908669E+02	-8.47237366708E-01	-1.31785728828E+02	-2.73772993472E+01	+1.48654724864E+02
5.27046151862E+08	-2.84179930230E+01	+9.74835062008E+01	-8.55135968229E-01	-1.32025463708E+02	-8.46867681535E-01	-1.32023325975E+02	-2.73008652543E+01	+1.48545330629E+02
5.27308149058E+08	-2.83483890903E+01	+9.74465764038E+01	-8.54245889566E-01	-1.32279610540E+02	-8.49085019834E-01	-1.32265510700E+02	-2.72166993216E+01	+1.48268814503E+02
5.27570276494E+08	-2.82664847741E+01	+9.74269669155E+01	-8.55426961367E-01	-1.32519807974E+02	-8.48338338512E-01	-1.32518946982E+02	-2.71275553612E+01	+1.48034237578E+02
5.27832534235E+08	-2.81747902971E+01	+9.73380679302E+01	-8.56701240452E-01	-1.32770120114E+02	-8.47106906744E-01	-1.32762017687E+02	-2.70619206257E+01	+1.47802452232E+02
5.28094922345E+08	-2.80955700982E+01	+9.73969614897E+01	-8.55973461475E-01	-1.33012089495E+02	-8.48973174471E-01	-1.33000988527E+02	-2.69720211378E+01	+1.47585094864E+02
5.28357440890E+08	-2.80204256400E+01	+9.73031809710E+01	-8.56276903352E-01	-1.33246633490E+02	-8.49748395363E-01	-1.33237927803E+02	-2.68955662951E+01	+1.47449850126E+02
5.28620089934E+08	-2.79388719068E+01	+9.73365393656E+01	-8.57339335205E-01	-1.33497514656E+02	-8.50485683690E-01	-1.33486872166E+02	-2.68246942258E+01	+1.47118255887E+02
5.28882869543E+08	-2.78609020084E+01	+9.72939895062E+01	-8.57188310424E-01	-1.33742383902E+02	-8.51211110673E-01	-1.33736171735E+02	-2.67457828279E+01	+1.46907560990E+02
5.29145779780E+08	-2.77890341862E+01	+9.72442472434E+01	-8.56683142578E-01	-1.33982699139E+02	-8.50590103282E-01	-1.33971180230E+02	-2.66604739599E+01	+1.46611872748E+02
5.29408820711E+08	-2.76982081562E+01	+9.71253262648E+01	-8.58607780048E-01	-1.34225281037E+02	-8.50690654257E-01	-1.34218941863E+02	-2.65879639337E+01	+1.46415726830E+02
