# Hz S DB R 50
! CMT, C2409, 19096212, 19.2.3/2
! Date: 3/29/2022 2:58:53 AM
! Data: Format (Calibration Info)
! Freq	S11:dB/Ang(F2)	S21:dB/Ang(F2)	S12:dB/Ang(F2)	S22:dB/Ang(F2)
5.00000000000E+08	-9.50296862049E-01	+1.15969983947E+01	-6.12250740538E+01	+6.69116946856E+01	-6.19941339417E+01	+6.32274081863E+01	-7.16957489970E-01	+1.97315415904E+01
5.00248552423E+08	-9.57648463964E-01	+1.11360107444E+01	-6.17085055124E+01	+6.32333060392E+01	-6.22738214631E+01	+6.09429296254E+01	-7.18668718377E-01	+1.92560877921E+01
5.00497228402E+08	-9.60793583149E-01	+1.05806278548E+01	-6.17893582204E+01	+6.17298410687E+01	-6.20396039696E+01	+5.96994895854E+01	-7.15634980578E-01	+1.87256047225E+01
5.00746028000E+08	-9.56969851344E-01	+1.00866171853E+01	-6.21985702026E+01	+5.93962751506E+01	-6.21617208715E+01	+5.86955644256E+01	-7.16394641597E-01	+1.82430370086E+01
5.00994951277E+08	-9.65219264056E-01	+9.58853279878E+00	-6.21240946629E+01	+5.86642965312E+01	-6.21819802086E+01	+5.52753201685E+01	-7.13789334897E-01	+1.77105606424E+01
5.01243998295E+08	-9.64199547681E-01	+9.09196848455E+00	-6.18556952791E+01	+5.46595612363E+01	-6.29431000743E+01	+5.32822341879E+01	-7.17427541722E-01	+1.71723235894E+01
5.01493169115E+08	-9.65924642172E-01	+8.49682103340E+00	-6.23234114750E+01	+5.11914952224E+01	-6.28501245445E+01	+5.52348008567E+01	-7.22825434472E-01	+1.66501437211E+01
5.01742463799E+08	-9.68455246297E-01	+8.05645746595E+00	-6.26309292968E+01	+5.04207145621E+01	-6.28954552959E+01	+4.84162547719E+01	-7.21276621541E-01	+1.62201031011E+01
5.01991882409E+08	-9.65807563484E-01	+7.50756341297E+00	-6.25559713249E+01	+4.81510533368E+01	-6.34761918818E+01	+4.74667215562E+01	-7.16365702292E-01	+1.56412570430E+01
5.02241425007E+08	-9.75852393261E-01	+6.99073489066E+00	-6.24870753055E+01	+4.88653848060E+01	-6.35547444909E+01	+4.89934888863E+01	-7.17097753859E-01	+1.51413656253E+01
5.02491091653E+08	-9.69007467334E-01	+6.50690026342E+00	-6.31329106446E+01	+4.72078537229E+01	-6.37607548560E+01	+4.39158260525E+01	-7.20615921918E-01	+1.46126228141E+01
5.02740882409E+08	-9.77787715987E-01	+5.99749986701E+00	-6.32962577057E+01	+4.75577632469E+01	-6.38233936893E+01	+4.24542515628E+01	-7.14016392944E-01	+1.40757574458E+01
5.02990797338E+08	-9.69441486930E-01	+5.53009835809E+00	-6.34565955928E+01	+4.62278459736E+01	-6.39648203372E+01	+4.27389884349E+01	-7.26026289514E-01	+1.36002843156E+01
5.03240836501E+08	-9.67818885787E-01	+4.98623708581E+00	-6.38079369786E+01	+3.92445862095E+01	-6.37401737378E+01	+3.90397241834E+01	-7.20686673144E-01	+1.30701193126E+01
5.03490999959E+08	-9.75363680039E-01	+4.39329613206E+00	-6.36942092462E+01	+3.62578077681E+01	-6.46378518194E+01	+3.51098171485E+01	-7.21995068411E-01	+1.25350382875E+01
5.03741287775E+08	-9.81046420222E-01	+3.97866684099E+00	-6.41464799069E+01	+3.60019401987E+01	-6.47424331557E+01	+3.64991242764E+01	-7.28094082189E-01	+1.20471452124E+01
5.03991700010E+08	-9.74079597483E-01	+3.48069589543E+00	-6.45087317619E+01	+3.17839682266E+01	-6.49536942075E+01	+3.39068377373E+01	-7.26450518175E-01	+1.15115816226E+01
5.04242236726E+08	-9.72161879738E-01	+2.93412466774E+00	-6.43663779093E+01	+3.09646747109E+01	-6.56912073007E+01	+2.61470575559E+01	-7.29653554975E-01	+1.10308840373E+01
5.04492897985E+08	-9.80840483766E-01	+2.40994833860E+00	-6.45154566071E+01	+3.55652249053E+01	-6.53771670066E+01	+2.60899857313E+01	-7.25312677951E-01	+1.04693601484E+01
5.04743683850E+08	-9.77111070413E-01	+1.89219856853E+00	-6.53382709027E+01	+2.63758492720E+01	-6.64678896983E+01	+2.68006678350E+01	-7.14725427432E-01	+9.92552294895E+00
5.04994594381E+08	-9.70972068521E-01	+1.39825105882E+00	-6.51194836408E+01	+2.67621841815E+01	-6.59956587872E+01	+2.71439146190E+01	-7.22786295413E-01	+9.44112672599E+00
5.05245629641E+08	-9.88282370592E-01	+8.32275496429E-01	-6.58766243691E+01	+2.47808104396E+01	-6.65705978992E+01	+2.06534358074E+01	-7.25229426552E-01	+8.93437937470E+00
5.05496789691E+08	-9.68611512936E-01	+3.62724774038E-01	-6.63619489725E+01	+2.07981181607E+01	-6.77322238454E+01	+2.02025539442E+01	-7.29827469220E-01	+8.43031053401E+00
5.05748074595E+08	-9.73617966865E-01	-1.58175237731E-01	-6.64433177300E+01	+2.44944825474E+01	-6.70718686169E+01	+2.10687777816E+01	-7.25884012462E-01	+7.91961733511E+00
5.05999484413E+08	-9.77862776963E-01	-6.58645905522E-01	-6.75388372171E+01	+2.33048599639E+01	-6.79797626995E+01	+1.11334595144E+01	-7.23071469739E-01	+7.35753804476E+00
5.06251019209E+08	-9.86248104948E-01	-1.18038332887E+00	-6.82149712680E+01	+2.29372262793E+01	-6.79070270803E+01	+1.26305710318E+01	-7.32450690862E-01	+6.86992665452E+00
5.06502679044E+08	-9.75926175839E-01	-1.65741701503E+00	-6.88008342404E+01	+2.03884888873E+01	-6.97344089528E+01	+8.09559031806E+00	-7.32954788632E-01	+6.35917836194E+00
5.06754463980E+08	-9.84539990496E-01	-2.26581204983E+00	-6.91963401505E+01	+1.92719872373E+01	-6.97674311785E+01	+8.02054557290E+00	-7.30063339128E-01	+5.80171645617E+00
5.07006374079E+08	-9.90518135964E-01	-2.73551173073E+00	-6.91136252588E+01	+1.43168662122E+01	-7.02955289995E+01	+2.33450923350E+00	-7.33225957283E-01	+5.31624753649E+00
5.07258409405E+08	-9.82674946918E-01	-3.22151394825E+00	-6.92419064085E+01	+1.04389851136E+01	-7.11231836024E+01	+3.44643944583E+00	-7.24804770954E-01	+4.82914220351E+00
5.07510570018E+08	-9.89782886157E-01	-3.74125189094E+00	-6.95592904522E+01	+1.32920283497E+01	-7.19277215307E+01	+7.38927091889E+00	-7.32715081803E-01	+4.28786234778E+00
5.07762855982E+08	-9.86573587027E-01	-4.26430485084E+00	-7.03001631511E+01	-4.55255078754E-01	-7.23110229899E+01	+1.18042611321E+00	-7.36009733844E-01	+3.75553367452E+00
5.08015267358E+08	-9.90753431334E-01	-4.76261389802E+00	-7.19047422311E+01	+1.22814932997E+01	-7.27246134302E+01	+1.75451995104E+01	-7.27954264055E-01	+3.22387653103E+00
5.08267804209E+08	-9.89969089576E-01	-5.29838295869E+00	-7.14653019094E+01	+1.34736952387E+01	-7.44212421362E+01	-6.61155506488E+00	-7.36141303846E-01	+2.69058910754E+00
5.08520466597E+08	-9.95586438944E-01	-5.83174734370E+00	-7.36519285596E+01	+8.48290555582E+00	-7.48026193515E+01	+1.11782287539E+01	-7.34640358970E-01	+2.18053019880E+00
5.08773254585E+08	-9.98064875945E-01	-6.35212613770E+00	-7.52881801260E+01	+2.50391873167E+01	-7.59886669682E+01	+1.65742861413E+01	-7.27531588271E-01	+1.68331668411E+00
5.09026168235E+08	-9.92795772977E-01	-6.81968543539E+00	-7.60226086728E+01	+1.53985719715E+01	-8.02536606004E+01	+1.93068515172E+01	-7.39612567613E-01	+1.15175753246E+00
5.09279207610E+08	-9.93224721332E-01	-7.38446951132E+00	-8.01954028072E+01	+3.47611356376E+01	-8.22154623630E+01	+2.03709408056E+01	-7.33488112148E-01	+5.92536669777E-01
5.09532372772E+08	-9.93818058125E-01	-7.91784075725E+00	-7.60779182017E+01	+2.91122507887E+01	-8.23527790497E+01	+4.90923669507E+01	-7.36968043540E-01	+1.22663016260E-01
5.09785663784E+08	-1.00011456241E+00	-8.46909207953E+00	-7.84626905789E+01	+3.43222572738E+01	-8.16392336260E+01	+5.04975562133E+01	-7.35093231388E-01	-4.27059757823E-01
5.10039080707E+08	-9.93360936903E-01	-8.91523067155E+00	-8.15035542300E+01	+3.35520670094E+01	-7.99336918931E+01	+5.56123502508E+01	-7.36206871057E-01	-9.34115009669E-01
5.10292623606E+08	-1.00233805245E+00	-9.46666820753E+00	-7.94724005715E+01	+4.88288045114E+01	-8.28287676641E+01	+5.91765731946E+01	-7.34375230457E-01	-1.47367507615E+00
5.10546292542E+08	-9.99304028912E-01	-9.96954102721E+00	-7.84375504801E+01	+6.99370244264E+01	-8.25546841646E+01	+8.72699505317E+01	-7.39908756066E-01	-2.01696840164E+00
5.10800087578E+08	-1.00413247588E+00	-1.05155686887E+01	-7.86305847994E+01	+9.44222281422E+01	-8.23498041923E+01	+9.20942669386E+01	-7.33952736478E-01	-2.54473122417E+00
5.11054008776E+08	-1.00353557427E+00	-1.09919268936E+01	-7.91477944188E+01	+6.53158457232E+01	-7.77695842229E+01	+1.08451035081E+02	-7.37705914900E-01	-3.03264813475E+00
5.11308056201E+08	-1.00789680559E+00	-1.15121912498E+01	-7.63169318637E+01	+7.99847285393E+01	-7.63048591827E+01	+9.15346814311E+01	-7.42509628551E-01	-3.61718148863E+00
5.11562229913E+08	-1.00876538517E+00	-1.20919856508E+01	-7.67866927577E+01	+1.03642690908E+02	-7.46969444525E+01	+1.07470443281E+02	-7.44574059083E-01	-4.13139191995E+00
5.11816529976E+08	-1.01035144892E+00	-1.25909652635E+01	-7.59233408968E+01	+1.00217339332E+02	-7.34652887293E+01	+1.00466429541E+02	-7.40631024413E-01	-4.62791259263E+00
5.12070956453E+08	-1.01113934502E+00	-1.31178374535E+01	-7.41920094730E+01	+9.01188799848E+01	-7.40964659272E+01	+1.16907494666E+02	-7.43555357626E-01	-5.17570983353E+00
5.12325509407E+08	-1.00997302397E+00	-1.36379440318E+01	-7.29479845647E+01	+9.33526685712E+01	-7.30475323415E+01	+1.01620335770E+02	-7.49965484079E-01	-5.77042360814E+00
5.12580188900E+08	-1.00999865185E+00	-1.41766159166E+01	-7.47071761103E+01	+9.96722201315E+01	-7.19473741355E+01	+9.97467199976E+01	-7.42139975522E-01	-6.26147338637E+00
5.12834994996E+08	-1.01328997853E+00	-1.46292709514E+01	-7.16344190211E+01	+9.41100474844E+01	-7.07460025543E+01	+9.83794200392E+01	-7.42674763366E-01	-6.75777673464E+00
5.13089927757E+08	-1.01352828362E+00	-1.51947747783E+01	-7.11705969857E+01	+9.25597163365E+01	-7.03367525077E+01	+1.06185094580E+02	-7.46046303155E-01	-7.31805003611E+00
5.13344987246E+08	-1.00789487034E+00	-1.57461870095E+01	-6.97162048274E+01	+9.20180214451E+01	-6.91138875029E+01	+1.04666511417E+02	-7.50866279569E-01	-7.84655442064E+00
5.13600173527E+08	-1.01780051155E+00	-1.63081143066E+01	-6.94588656569E+01	+1.00347482504E+02	-6.98013830526E+01	+9.23222458654E+01	-7.53425188014E-01	-8.37981048902E+00
5.13855486662E+08	-1.01884782423E+00	-1.67799227347E+01	-6.99567549286E+01	+9.11833830306E+01	-6.85851155495E+01	+1.01926071233E+02	-7.48405174966E-01	-8.90974607437E+00
5.14110926714E+08	-1.02091889449E+00	-1.73501338145E+01	-6.77853321629E+01	+9.41232555500E+01	-6.83940134041E+01	+9.56648301579E+01	-7.55337704500E-01	-9.44969717449E+00
5.14366493747E+08	-1.01793837886E+00	-1.78449494341E+01	-6.71614844560E+01	+9.49525062969E+01	-6.68298606186E+01	+9.42639829027E+01	-7.53213560096E-01	-9.93568863402E+00
5.14622187824E+08	-1.01987260063E+00	-1.83907033405E+01	-6.70051195857E+01	+8.75525903343E+01	-6.73840364322E+01	+8.85678451428E+01	-7.57361229144E-01	-1.05655784473E+01
5.14878009007E+08	-1.02397782957E+00	-1.89026564216E+01	-6.66660799119E+01	+8.37317045003E+01	-6.69149012264E+01	+9.06681930861E+01	-7.59874414592E-01	-1.10353279919E+01
5.15133957360E+08	-1.02689601975E+00	-1.94360956735E+01	-6.61523212994E+01	+8.47230992100E+01	-6.65330953132E+01	+9.09074444517E+01	-7.57194975614E-01	-1.15604724290E+01
5.15390032947E+08	-1.03212640567E+00	-1.99205128958E+01	-6.63564386151E+01	+8.26976053908E+01	-6.59603456478E+01	+8.49124113710E+01	-7.68694623887E-01	-1.21006798015E+01
5.15646235829E+08	-1.02548194128E+00	-2.04458457449E+01	-6.59253819302E+01	+8.36749696552E+01	-6.53317442179E+01	+8.32322271227E+01	-7.64925123855E-01	-1.26736326106E+01
5.15902566072E+08	-1.02749440996E+00	-2.09977642678E+01	-6.55996433821E+01	+7.66086190498E+01	-6.49077966086E+01	+8.33528814548E+01	-7.62585912776E-01	-1.31841678857E+01
5.16159023737E+08	-1.03283731794E+00	-2.15073427690E+01	-6.48268871239E+01	+7.71346735799E+01	-6.44916452864E+01	+7.74022251728E+01	-7.72035836428E-01	-1.37026578349E+01
5.16415608889E+08	-1.03647236167E+00	-2.20898560308E+01	-6.45837108398E+01	+7.38025517613E+01	-6.44936098942E+01	+7.65806870938E+01	-7.74158547215E-01	-1.42486514837E+01
5.16672321591E+08	-1.03532380990E+00	-2.26061279370E+01	-6.42822175885E+01	+6.76493298175E+01	-6.37158806412E+01	+7.22309822488E+01	-7.77294569511E-01	-1.48578870254E+01
5.16929161905E+08	-1.03446714484E+00	-2.31391207599E+01	-6.35724630316E+01	+7.27625104367E+01	-6.39330484506E+01	+7.02264002953E+01	-7.74677191376E-01	-1.53351607397E+01
5.17186129897E+08	-1.03825795435E+00	-2.36650719345E+01	-6.33196649189E+01	+6.61994627755E+01	-6.31462308335E+01	+6.93770019998E+01	-7.79108168177E-01	-1.58562851114E+01
5.17443225628E+08	-1.03866142265E+00	-2.41860993360E+01	-6.37860924990E+01	+6.46460848533E+01	-6.30137262673E+01	+6.61727948343E+01	-7.81459085995E-01	-1.63560195495E+01
5.17700449163E+08	-1.04191807626E+00	-2.47346428453E+01	-6.32515028683E+01	+6.14960320161E+01	-6.33931843335E+01	+6.42184716347E+01	-7.84470713122E-01	-1.69179431329E+01
5.17957800564E+08	-1.03803080809E+00	-2.52689000211E+01	-6.31576429582E+01	+6.12694462622E+01	-6.27755836919E+01	+5.79644990134E+01	-7.83529275733E-01	-1.74680275464E+01
5.18215279897E+08	-1.04776111059E+00	-2.57797557311E+01	-6.28732036667E+01	+5.74267130775E+01	-6.28105193533E+01	+5.63913455200E+01	-7.89589517338E-01	-1.80267151303E+01
5.18472887224E+08	-1.04819639922E+00	-2.63054971617E+01	-6.29690367040E+01	+5.52157403974E+01	-6.31620301164E+01	+5.79141294718E+01	-7.88979722170E-01	-1.84726494559E+01
5.18730622608E+08	-1.04598641067E+00	-2.68425825360E+01	-6.27614079631E+01	+5.08898626307E+01	-6.21735927425E+01	+5.13808324566E+01	-7.86502562560E-01	-1.90488095236E+01
5.18988486114E+08	-1.05270351561E+00	-2.73272629060E+01	-6.24492470893E+01	+4.75715080096E+01	-6.23533155836E+01	+4.95842353277E+01	-7.97539120087E-01	-1.95572375561E+01
5.19246477806E+08	-1.05160187572E+00	-2.78893442380E+01	-6.24175518092E+01	+4.85885736144E+01	-6.20871366862E+01	+4.91841283247E+01	-7.97265650175E-01	-2.01467628041E+01
5.19504597746E+08	-1.05011878154E+00	-2.84625237566E+01	-6.18851995891E+01	+4.56617132233E+01	-6.22036680325E+01	+4.73522758366E+01	-7.94572993579E-01	-2.06110917003E+01
5.19762845999E+08	-1.05504117750E+00	-2.89370668460E+01	-6.18196189303E+01	+4.01783840701E+01	-6.16243525795E+01	+4.41534375664E+01	-7.97573571861E-01	-2.11579493041E+01
5.20021222628E+08	-1.05362400805E+00	-2.94580731042E+01	-6.17517359250E+01	+3.70976233232E+01	-6.16934137899E+01	+3.99411172192E+01	-7.93092135347E-01	-2.16928588633E+01
5.20279727698E+08	-1.05505249102E+00	-3.00796831342E+01	-6.16212040372E+01	+3.82274037434E+01	-6.16904046245E+01	+3.64436060805E+01	-8.08163212974E-01	-2.22545889594E+01
5.20538361271E+08	-1.06549120416E+00	-3.05735206810E+01	-6.14255159326E+01	+3.37576471680E+01	-6.15586177046E+01	+3.59743430622E+01	-8.12479326342E-01	-2.28109261385E+01
5.20797123413E+08	-1.06193530246E+00	-3.10688557670E+01	-6.15121694842E+01	+3.12734767488E+01	-6.14417434310E+01	+3.27264810885E+01	-8.06331072895E-01	-2.33378090520E+01
5.21056014187E+08	-1.06663689048E+00	-3.16608571755E+01	-6.11615143158E+01	+2.73109331356E+01	-6.13146710409E+01	+2.95870345308E+01	-8.13743265332E-01	-2.38969376682E+01
5.21315033656E+08	-1.06600424392E+00	-3.21420330562E+01	-6.13038087486E+01	+2.66394504797E+01	-6.15018607069E+01	+2.81921414490E+01	-8.11140994470E-01	-2.44119424932E+01
5.21574181886E+08	-1.06622818271E+00	-3.27042885115E+01	-6.13044318680E+01	+2.45698649624E+01	-6.11040461829E+01	+2.62921765135E+01	-8.16194299181E-01	-2.49272864109E+01
5.21833458939E+08	-1.06107886998E+00	-3.32464912516E+01	-6.11347721213E+01	+2.03948399810E+01	-6.10839565358E+01	+2.17691176566E+01	-8.12999523353E-01	-2.54710744984E+01
5.22092864880E+08	-1.06975384628E+00	-3.37239687904E+01	-6.08907739705E+01	+2.00396621489E+01	-6.09320852294E+01	+2.06679961022E+01	-8.15520584677E-01	-2.59583452846E+01
5.22352399773E+08	-1.08066583822E+00	-3.43560315157E+01	-6.14052601046E+01	+1.75005554169E+01	-6.12500242861E+01	+1.85880002889E+01	-8.18804090648E-01	-2.64927126467E+01
5.22612063682E+08	-1.07796132832E+00	-3.48414971618E+01	-6.10635281433E+01	+1.58006023068E+01	-6.06671359178E+01	+1.57646622614E+01	-8.19694163937E-01	-2.70709995797E+01
5.22871856671E+08	-1.07921322912E+00	-3.53791554241E+01	-6.10124099105E+01	+1.37007339161E+01	-6.14850202560E+01	+1.33675489369E+01	-8.19861852669E-01	-2.76226810396E+01
5.23131778805E+08	-1.08213055056E+00	-3.59254271432E+01	-6.10000054566E+01	+1.12392356552E+01	-6.06798954247E+01	+1.05645191723E+01	-8.18763428012E-01	-2.81571273976E+01
5.23391830147E+08	-1.08310122478E+00	-3.64082383628E+01	-6.07485584432E+01	+7.10440979951E+00	-6.06725870992E+01	+9.33622643004E+00	-8.18623140837E-01	-2.86352708180E+01
5.23652010762E+08	-1.07927714865E+00	-3.69826060982E+01	-6.08326588267E+01	+4.95422363657E+00	-6.07164783533E+01	+8.95084748186E+00	-8.23956597801E-01	-2.91953626767E+01
5.23912320714E+08	-1.08447909859E+00	-3.75368344198E+01	-6.09015533480E+01	+2.18049260557E+00	-6.02213961869E+01	+4.12286519776E+00	-8.26050135203E-01	-2.97512473832E+01
5.24172760067E+08	-1.08328660768E+00	-3.80777650555E+01	-6.06114971880E+01	+1.80226228015E-01	-6.05912942838E+01	+1.55770664641E+00	-8.34140327265E-01	-3.02685601231E+01
5.24433328886E+08	-1.09001220489E+00	-3.86523710543E+01	-6.08434119293E+01	+1.25618158848E-02	-6.05330497484E+01	+1.62155645907E+00	-8.30815320214E-01	-3.08620580176E+01
5.24694027235E+08	-1.08672162937E+00	-3.91382173658E+01	-6.04698061846E+01	-4.52244766004E+00	-6.09086634999E+01	-1.38373813339E+00	-8.34259255667E-01	-3.13568579897E+01
5.24954855178E+08	-1.09264791600E+00	-3.96653996068E+01	-5.99840330016E+01	-5.88689941902E+00	-6.01431373799E+01	-2.96695079664E+00	-8.37742370247E-01	-3.19222813350E+01
5.25215812781E+08	-1.09497341122E+00	-4.02098539358E+01	-6.03932298974E+01	-6.25277372852E+00	-6.05880998499E+01	-5.97561922339E+00	-8.36351105718E-01	-3.24903826369E+01
5.25476900106E+08	-1.09562827127E+00	-4.07396540067E+01	-6.01478340549E+01	-1.11834674764E+01	-6.03877795430E+01	-1.01624482940E+01	-8.30446049967E-01	-3.30367839049E+01
5.25738117220E+08	-1.09892306614E+00	-4.13261675923E+01	-6.05404383650E+01	-1.29886798359E+01	-6.03484521469E+01	-1.39153108407E+01	-8.40025597166E-01	-3.35472648701E+01
5.25999464185E+08	-1.09372030629E+00	-4.18765650906E+01	-6.04725472415E+01	-1.73835772038E+01	-6.03928300970E+01	-1.74653673367E+01	-8.35181484039E-01	-3.40618399894E+01
5.26260941068E+08	-1.10335729287E+00	-4.23936047331E+01	-6.03735563566E+01	-1.89822790955E+01	-6.03279378383E+01	-1.85346007199E+01	-8.37821656310E-01	-3.46700025678E+01
5.26522547932E+08	-1.10181363689E+00	-4.28927805654E+01	-6.01257057368E+01	-2.34676660522E+01	-6.03188727303E+01	-2.11543046158E+01	-8.38404889139E-01	-3.52043666047E+01
5.26784284841E+08	-1.10605811633E+00	-4.34675861518E+01	-6.01761976613E+01	-2.52960427092E+01	-6.03653646920E+01	-2.44171481553E+01	-8.39651011960E-01	-3.57254583240E+01
5.27046151862E+08	-1.10995347958E+00	-4.40116107517E+01	-6.05080731773E+01	-2.78953114760E+01	-6.03549781439E+01	-2.88375863325E+01	-8.50321042901E-01	-3.62893564177E+01
5.27308149058E+08	-1.10449664132E+00	-4.45376273008E+01	-6.03438537220E+01	-3.18264876827E+01	-6.06448104248E+01	-3.09800969613E+01	-8.49607525962E-01	-3.68519444064E+01
5.27570276494E+08	-1.11320041942E+00	-4.51028261002E+01	-6.06209412229E+01	-3.51202715024E+01	-6.04844956606E+01	-3.41901716433E+01	-8.48555071687E-01	-3.73896051765E+01
5.27832534235E+08	-1.11079243333E+00	-4.56397244973E+01	-6.08370597300E+01	-3.59414473630E+01	-6.10523389819E+01	-3.69100693549E+01	-8.49279756226E-01	-3.79423102222E+01
5.28094922345E+08	-1.11788991115E+00	-4.61597203893E+01	-6.04679768683E+01	-3.77048065450E+01	-6.07901537541E+01	-3.83175613774E+01	-8.55948882232E-01	-3.85053681745E+01
5.28357440890E+08	-1.11721019921E+00	-4.67157511667E+01	-6.08680384631E+01	-4.15874299844E+01	-6.11393237337E+01	-4.23133829618E+01	-8.47995451910E-01	-3.90609401176E+01
5.28620089934E+08	-1.11854657862E+00	-4.72493108803E+01	-6.15624737010E+01	-3.96618350230E+01	-6.09304880684E+01	-4.48328707750E+01	-8.54439921698E-01	-3.96025141909E+01
5.28882869543E+08	-1.11333803329E+00	-4.78120989623E+01	-6.11004561045E+01	-4.42392490252E+01	-6.12342031416E+01	-4.57600066718E+01	-8.65369036405E-01	-4.01631229967E+01
5.29145779780E+08	-1.12370003213E+00	-4.83481632432E+01	-6.10274207100E+01	-5.06181564268E+01	-6.16718022210E+01	-4.97022265807E+01	-8.69802059889E-01	-4.06460604903E+01
5.29408820711E+08	-1.12506755857E+00	-4.88678281265E+01	-6.17158094592E+01	-5.24735350698E+01	-6.14005783811E+01	-5.36522764739E+01	-8.64339198615E-01	-4.12548146992E+01
