# Hz S DB R 50
! CMT, C2409, 19096212, 19.2.3/2
! Date: 3/29/2022 3:01:45 AM
! Data: Format (Calibration Info)
! Freq	S11:dB/Ang(F2)	S21:dB/Ang(F2)	S12:dB/Ang(F2)	S22:dB/Ang(F2)
5.00000000000E+08	-4.71227157373E-03	-3.87742125194E+01	-9.55402960103E+01	-1.15618829596E+02	-8.79550611314E+01	-1.74895225382E+02	-1.77336209535E+00	+8.87360974774E+00
5.00248552423E+08	-4.60988426747E-03	-3.88126757480E+01	-9.01003466398E+01	-1.34562348493E+02	-8.81102811004E+01	-1.56387676019E+02	-1.77216106937E+00	+8.31502313930E+00
5.00497228402E+08	-1.15982035720E-03	-3.88542670931E+01	-8.77762838975E+01	+1.48317224084E+02	-9.16652728267E+01	+1.44589349527E+02	-1.77509006000E+00	+7.76007861616E+00
5.00746028000E+08	-1.22342790268E-02	-3.88734288496E+01	-9.91794753030E+01	-1.36465328924E+02	-8.41243931343E+01	-1.79124885118E+02	-1.78218732218E+00	+7.23198084471E+00
5.00994951277E+08	-1.05827536411E-02	-3.88292288757E+01	-8.80025440713E+01	-4.70011805491E+01	-8.86429318714E+01	+7.49913514630E+01	-1.78647954457E+00	+6.68086852877E+00
5.01243998295E+08	-1.11921028927E-02	-3.89388319351E+01	-8.66634797175E+01	+1.07915191043E+02	-8.52999564291E+01	+7.67393246944E+01	-1.78427376724E+00	+6.12847117856E+00
5.01493169115E+08	-1.10780693051E-03	-3.88698843547E+01	-1.01993742754E+02	+7.13252750130E+01	-9.30637310216E+01	-3.82130735842E+01	-1.79644339930E+00	+5.52975417865E+00
5.01742463799E+08	-3.70534911547E-03	-3.88915428300E+01	-9.01784078890E+01	+1.49436947324E+02	-8.98789013786E+01	-1.66627563737E+02	-1.79699094466E+00	+5.02103838802E+00
5.01991882409E+08	-3.15515836255E-03	-3.89437766456E+01	-9.36825452801E+01	+1.48236837067E+02	-9.02395980935E+01	-5.90844567291E+01	-1.79155198259E+00	+4.48548259558E+00
5.02241425007E+08	-1.43095835087E-02	-3.89426403823E+01	-9.56310786663E+01	-1.57935638967E+02	-9.64522787607E+01	+9.02162551011E+00	-1.80846449896E+00	+3.86876565368E+00
5.02491091653E+08	-8.81895605678E-03	-3.90156207116E+01	-9.95013417828E+01	+1.43755961132E+02	-8.87301624263E+01	+1.16996245111E+02	-1.80599662225E+00	+3.33774600965E+00
5.02740882409E+08	-9.87294123013E-03	-3.89465847423E+01	-8.74643926748E+01	+1.52613709547E+02	-8.74675243815E+01	-1.25993519546E+02	-1.81374822875E+00	+2.81580078566E+00
5.02990797338E+08	-3.96972152269E-03	-3.89965027472E+01	-9.19222484552E+01	-1.70221758170E+02	-8.44902891289E+01	-1.40139635383E+02	-1.82405254458E+00	+2.22570547403E+00
5.03240836501E+08	-1.17306571364E-02	-3.90458493576E+01	-8.91421987421E+01	-1.74290510589E+02	-9.59819807930E+01	+1.40775727714E+02	-1.82455547092E+00	+1.73948482513E+00
5.03490999959E+08	-1.09056335769E-02	-3.90408579015E+01	-9.41977329890E+01	+1.14151778346E+02	-9.00818148003E+01	+9.48598162961E+01	-1.82429319468E+00	+1.16980546212E+00
5.03741287775E+08	-8.90848892991E-03	-3.90821934244E+01	-1.02200423377E+02	+4.49605038968E+01	-9.41236292794E+01	+4.51402942836E+01	-1.82926127538E+00	+6.20667754019E-01
5.03991700010E+08	-4.81691643178E-03	-3.91140779857E+01	-8.90360368210E+01	-1.71344351092E+02	-8.78939442007E+01	-1.32306275314E+02	-1.83453993488E+00	+4.44456056623E-02
5.04242236726E+08	-7.67016934751E-03	-3.91073381110E+01	-8.92584909430E+01	-1.15064222993E+02	-8.94944069834E+01	-7.64804323988E+01	-1.84349747425E+00	-4.40511852624E-01
5.04492897985E+08	-7.36591781088E-03	-3.91205857567E+01	-8.94083571351E+01	-1.72094424391E+02	-8.46460518106E+01	+9.37746488458E+01	-1.84052010447E+00	-1.06278869306E+00
5.04743683850E+08	-8.12077238924E-03	-3.91643937900E+01	-9.37922510008E+01	-1.47746323189E+02	-8.97568450987E+01	+1.19974219250E+02	-1.84764287789E+00	-1.55602562789E+00
5.04994594381E+08	-7.25535539006E-03	-3.91602042178E+01	-8.82068343130E+01	-1.56951317558E+02	-9.24924177691E+01	+1.10447807633E+02	-1.85275373227E+00	-2.13022156432E+00
5.05245629641E+08	-1.02613691873E-02	-3.91429851448E+01	-9.10379590094E+01	+1.14584720765E+02	-8.47408318422E+01	+9.35830760871E+01	-1.85823175469E+00	-2.60854980615E+00
5.05496789691E+08	-4.69044116161E-03	-3.91673092477E+01	-9.32781890430E+01	-5.67330881761E+01	-1.01192069074E+02	+2.89457432416E+01	-1.86528970874E+00	-3.16106453552E+00
5.05748074595E+08	-1.15186928726E-02	-3.92304797220E+01	-8.86372962127E+01	-1.48214365009E+02	-9.70383724584E+01	-9.48039690334E+01	-1.86948904648E+00	-3.73192532211E+00
5.05999484413E+08	-5.90816291565E-03	-3.91752131457E+01	-1.02529183778E+02	-1.59977562752E+02	-1.02103296512E+02	-1.35261166872E+02	-1.87423209910E+00	-4.29509921389E+00
5.06251019209E+08	-4.72388725915E-03	-3.92263002241E+01	-9.81997571196E+01	+1.58485937882E+02	-8.77383805707E+01	-5.28237285570E+01	-1.87739834802E+00	-4.80164281619E+00
5.06502679044E+08	-7.21415183950E-03	-3.92743539910E+01	-9.43972807347E+01	-9.02379629551E+01	-8.81806403226E+01	+1.42348524987E+02	-1.87874694389E+00	-5.34873008201E+00
5.06754463980E+08	-9.71487591756E-03	-3.93044146759E+01	-9.07340360475E+01	+1.30851632809E+02	-9.33926081773E+01	+1.33148091865E+02	-1.88222474934E+00	-5.89903324064E+00
5.07006374079E+08	-6.35314536781E-03	-3.93115180940E+01	-9.05606486985E+01	-1.38222688160E+01	-1.18137627642E+02	+3.62664612714E+01	-1.88231849984E+00	-6.47502036082E+00
5.07258409405E+08	-6.86345269498E-03	-3.93073044879E+01	-8.55515841421E+01	+1.97920921298E-01	-9.51772393842E+01	+6.21863206997E+01	-1.89017817472E+00	-6.97832096415E+00
5.07510570018E+08	-1.00315094622E-02	-3.93217019505E+01	-8.97677721256E+01	+1.43897193179E+02	-9.15048663194E+01	+1.13297030489E+02	-1.89453886534E+00	-7.50856025467E+00
5.07762855982E+08	-2.53444117498E-03	-3.93618260447E+01	-9.01522814094E+01	+5.78860373446E+01	-9.20339371367E+01	+1.56726270953E+01	-1.89479752536E+00	-8.06840661995E+00
5.08015267358E+08	-8.84055402487E-03	-3.94198895756E+01	-8.72115447615E+01	+1.16736273723E+02	-9.34425833214E+01	-1.54858594059E+02	-1.89729471101E+00	-8.64983377502E+00
5.08267804209E+08	-5.37348991980E-03	-3.93998909434E+01	-8.88421661083E+01	+4.37240469359E+01	-9.32120284398E+01	+7.52042877147E+01	-1.90754325434E+00	-9.17877289697E+00
5.08520466597E+08	-8.93992684307E-03	-3.94118839103E+01	-1.06884789267E+02	-1.41270222652E+02	-8.76212201123E+01	+1.18988602013E+01	-1.90428990975E+00	-9.69369818847E+00
5.08773254585E+08	-1.41516111043E-02	-3.94546242939E+01	-9.37323375316E+01	+1.02621420300E+02	-9.28416097661E+01	+1.53909300175E+02	-1.91372646090E+00	-1.02688957147E+01
5.09026168235E+08	-6.86971859056E-03	-3.94613981889E+01	-8.75521178646E+01	+1.19611028729E+02	-9.43015231295E+01	-1.69913112993E+02	-1.91247282407E+00	-1.08221384937E+01
5.09279207610E+08	-9.54460257306E-03	-3.94928893951E+01	-8.97578107198E+01	+1.69600143507E+02	-9.33384868950E+01	+4.83635411285E+01	-1.92319177796E+00	-1.14146308806E+01
5.09532372772E+08	-1.41947364857E-02	-3.95312776178E+01	-8.60672420482E+01	+1.54105497145E+02	-9.27302874974E+01	-4.55626615177E+01	-1.92094047702E+00	-1.19074449345E+01
5.09785663784E+08	-1.37031916130E-02	-3.95042007150E+01	-9.22144442896E+01	-9.06910641411E+01	-8.88746240410E+01	+1.34586810264E+02	-1.93119165692E+00	-1.25476331817E+01
5.10039080707E+08	-8.07243240382E-03	-3.95563876628E+01	-8.69207061581E+01	+7.93546772020E+01	-9.27115646365E+01	-1.54091478254E+02	-1.93736601723E+00	-1.30044174295E+01
5.10292623606E+08	-6.26870209623E-03	-3.95646717371E+01	-9.13770266685E+01	+1.20885003507E+02	-9.35163461823E+01	-2.39395300022E+01	-1.94853136275E+00	-1.35316171980E+01
5.10546292542E+08	-9.02229163791E-03	-3.95798588193E+01	-8.98528680967E+01	+3.19287307207E+01	-9.07608035457E+01	+8.27278302008E+01	-1.95821994770E+00	-1.41297696918E+01
5.10800087578E+08	-1.20734447321E-02	-3.95496101100E+01	-1.02386836403E+02	+4.00472178039E+01	-9.04535041830E+01	+4.70265390914E+01	-1.95790679890E+00	-1.47014454309E+01
5.11054008776E+08	-1.55427126211E-02	-3.96026058918E+01	-8.78548241168E+01	+1.14380995996E+02	-8.52116060349E+01	+6.16414750378E+01	-1.96633814910E+00	-1.51954571776E+01
5.11308056201E+08	-8.02803275755E-03	-3.96626923685E+01	-8.76406437037E+01	+3.76970170384E+01	-8.84031354076E+01	+1.22167973441E+02	-1.96890944723E+00	-1.57677270312E+01
5.11562229913E+08	-1.12334884443E-02	-3.96724853446E+01	-8.64876275802E+01	+8.82118449547E+01	-8.35105695736E+01	+8.66569295739E+01	-1.98429428022E+00	-1.62979582820E+01
5.11816529976E+08	-9.30429984270E-03	-3.96188721844E+01	-9.01641540178E+01	+1.06723301977E+02	-8.22210963045E+01	+3.99051327956E+01	-1.98662804584E+00	-1.68485002846E+01
5.12070956453E+08	-8.32941113067E-03	-3.97064007193E+01	-9.28830135285E+01	+1.53820472960E+02	-9.34907592532E+01	-7.64377491664E+01	-1.99358609105E+00	-1.73347335630E+01
5.12325509407E+08	-9.11781901722E-03	-3.97188076574E+01	-9.56750006633E+01	+5.34401953474E+01	-9.30922397719E+01	+1.25252536960E+02	-1.99313369224E+00	-1.79337130105E+01
5.12580188900E+08	-9.50337472875E-03	-3.97087522698E+01	-9.14428422897E+01	-8.95463614202E+00	-1.02021574046E+02	-1.07727786358E+00	-2.00569114520E+00	-1.84249621765E+01
5.12834994996E+08	-6.24131146831E-03	-3.97711772782E+01	-9.06100564552E+01	+3.78581940695E+01	-9.47515833764E+01	+1.15616183219E+02	-2.00379921968E+00	-1.89420229531E+01
5.13089927757E+08	-1.07921387554E-02	-3.97837967871E+01	-8.80125797815E+01	-3.85658844429E+00	-8.64850893404E+01	+5.41761285991E+01	-2.00249827821E+00	-1.95025668295E+01
5.13344987246E+08	-5.99104578226E-03	-3.97940281750E+01	-9.71494477849E+01	+3.96587262673E+01	-9.27860316175E+01	+1.46454466191E+01	-2.01024239767E+00	-2.00864500140E+01
5.13600173527E+08	-6.96415122673E-03	-3.98189709918E+01	-9.31366429052E+01	+1.00046569594E+02	-8.98782682097E+01	+7.17228582116E+01	-2.01753301875E+00	-2.06224519901E+01
5.13855486662E+08	-9.61376847714E-03	-3.98937873512E+01	-8.80736079178E+01	-1.38265245515E+01	-8.96674702037E+01	+1.44212274727E+02	-2.01478178677E+00	-2.11718973130E+01
5.14110926714E+08	-1.28255327970E-02	-3.98875844063E+01	-8.79269476897E+01	+8.24959604110E+01	-8.90459823291E+01	-1.56244695047E+02	-2.02372551748E+00	-2.16907105054E+01
5.14366493747E+08	-1.19822752822E-02	-3.98635266934E+01	-9.39671779529E+01	+1.11416649018E+02	-8.96972531985E+01	+1.30168450225E+01	-2.02994541491E+00	-2.22458618227E+01
5.14622187824E+08	-9.47860385199E-03	-3.99169664556E+01	-9.09214526985E+01	+1.94685198464E+01	-8.89006748221E+01	+1.61072370877E+01	-2.03339560326E+00	-2.27594389815E+01
5.14878009007E+08	-1.39164360647E-02	-3.99093105313E+01	-8.93173636811E+01	+8.57129852391E+01	-8.75588911445E+01	+4.32028939854E+01	-2.03877056851E+00	-2.33635143056E+01
5.15133957360E+08	-8.70794081437E-03	-3.99414463834E+01	-9.75311517648E+01	+1.72372310792E+02	-9.05598001052E+01	-4.40727208953E+01	-2.04575034089E+00	-2.38624609973E+01
5.15390032947E+08	-1.35093182221E-02	-3.99596060152E+01	-8.41000659140E+01	+9.43307706785E+01	-9.24246276157E+01	+3.50961882783E+01	-2.05646295305E+00	-2.43952086691E+01
5.15646235829E+08	-1.15840474270E-02	-3.99980691124E+01	-9.24990356773E+01	+1.58023782925E+02	-8.84406085570E+01	-3.96380789716E+01	-2.04884049803E+00	-2.50209207377E+01
5.15902566072E+08	-7.72586209723E-03	-3.99977471441E+01	-9.24189261027E+01	+5.79424561920E+01	-9.84397109633E+01	+3.51401320829E+01	-2.05927789035E+00	-2.55275315890E+01
5.16159023737E+08	-1.33953037255E-02	-3.99946679565E+01	-8.65662117425E+01	+6.36608488864E+00	-8.70210664843E+01	+1.07549081241E+02	-2.06186425958E+00	-2.61109531944E+01
5.16415608889E+08	-1.20130881954E-02	-4.00654891081E+01	-8.77945941186E+01	+4.80316467895E+01	-8.68278964439E+01	+4.83787182325E+01	-2.06869577254E+00	-2.66118353403E+01
5.16672321591E+08	-3.07102841443E-03	-4.00911086971E+01	-8.90297258482E+01	+4.00120898353E+01	-9.37872908093E+01	-1.90015538977E+01	-2.06823680919E+00	-2.71699663858E+01
5.16929161905E+08	-1.22915123343E-02	-4.00955858710E+01	-9.43461405464E+01	-1.55551453826E+01	-9.01737638237E+01	+9.85359976913E+01	-2.07525587437E+00	-2.77156391228E+01
5.17186129897E+08	-1.32357153952E-02	-4.01450753581E+01	-8.83158868874E+01	+3.84864917534E+01	-1.00441240996E+02	-6.75099380950E+01	-2.07990470788E+00	-2.83075448098E+01
5.17443225628E+08	-8.57896470145E-03	-4.01553151004E+01	-9.25877603873E+01	+2.28908607288E+00	-9.77935167814E+01	+1.40498006439E+02	-2.09154293442E+00	-2.88303715043E+01
5.17700449163E+08	-9.91557459536E-03	-4.01233854068E+01	-9.04438058191E+01	-2.43970758167E+00	-9.92051782697E+01	+3.16466045007E+01	-2.09179374192E+00	-2.93830617166E+01
5.17957800564E+08	-1.55334402726E-03	-4.01284072602E+01	-9.21319969117E+01	+2.45473716101E+01	-1.00978790407E+02	+3.07035312547E+01	-2.10084030039E+00	-2.99715593783E+01
5.18215279897E+08	-1.54792619409E-02	-4.02076390577E+01	-8.91078651710E+01	-1.03915209367E+02	-8.55988341423E+01	-2.25544920160E+01	-2.10712985474E+00	-3.05459096060E+01
5.18472887224E+08	-1.10120602054E-02	-4.02184368187E+01	-8.81064659381E+01	+1.83264485427E+00	-9.00059766518E+01	+1.29358866741E+01	-2.10878533445E+00	-3.10876811318E+01
5.18730622608E+08	-1.38053890576E-02	-4.02500898531E+01	-9.98276303604E+01	+1.27055400406E+02	-9.38050337581E+01	-2.97391948552E+01	-2.12555101282E+00	-3.16230529334E+01
5.18988486114E+08	-1.35407577063E-02	-4.02591846955E+01	-8.78573956115E+01	-4.37911169582E+01	-9.76393156095E+01	+5.96018360204E+01	-2.12283617230E+00	-3.22232578064E+01
5.19246477806E+08	-6.56984041725E-03	-4.02683772632E+01	-8.48432742618E+01	+7.11958624006E+00	-8.78135501145E+01	+5.10029618972E+01	-2.12861951873E+00	-3.27954414534E+01
5.19504597746E+08	-1.02956472907E-02	-4.02862528109E+01	-9.25455003456E+01	+4.72815556619E+01	-8.77620144825E+01	-4.07295049430E+01	-2.13533903575E+00	-3.32968785854E+01
5.19762845999E+08	-5.42618114828E-03	-4.03179072579E+01	-8.65619974804E+01	+4.75902921780E+01	-1.00377191914E+02	+2.52681322318E+01	-2.14888937204E+00	-3.38486742644E+01
5.20021222628E+08	-8.61203128456E-03	-4.03393835815E+01	-9.26050257228E+01	+2.40855710218E+01	-9.08393892820E+01	+7.62787573816E+01	-2.15751617196E+00	-3.44625441318E+01
5.20279727698E+08	-1.67147448391E-02	-4.03304696315E+01	-9.41505199543E+01	+5.57098133444E+00	-8.74539488317E+01	+3.50493281858E+01	-2.16180291992E+00	-3.50271939664E+01
5.20538361271E+08	-8.71540911988E-03	-4.03621144598E+01	-8.82367987761E+01	-2.81511028415E+01	-8.34625392864E+01	+1.38411140681E+01	-2.16781484731E+00	-3.55133248365E+01
5.20797123413E+08	-1.27313869032E-02	-4.04047086242E+01	-9.20456729777E+01	-6.65358422986E+01	-9.67035247784E+01	-5.79665032272E+00	-2.18094920069E+00	-3.60895455703E+01
5.21056014187E+08	-1.33638706943E-02	-4.04246659650E+01	-8.50957365818E+01	-1.25483560064E+02	-9.48665784352E+01	-5.27991159030E+01	-2.18525017295E+00	-3.66401617891E+01
5.21315033656E+08	-1.54691810202E-02	-4.04397591771E+01	-8.28464637482E+01	-2.36585913801E+01	-8.74668155727E+01	+1.35155095054E+01	-2.19860885560E+00	-3.71994373267E+01
5.21574181886E+08	-9.92191067415E-03	-4.04925453138E+01	-9.71974605856E+01	+4.26852234845E+01	-8.53539786411E+01	+2.11852162941E+01	-2.20520856178E+00	-3.77151703596E+01
5.21833458939E+08	-9.95328617940E-03	-4.04979381652E+01	-1.02968330292E+02	+7.77927064397E+01	-8.61560912041E+01	+7.18773763228E+00	-2.21425715415E+00	-3.82377677527E+01
5.22092864880E+08	-1.59534546948E-02	-4.05339330374E+01	-8.47876940770E+01	+3.78705096837E+00	-8.94519294163E+01	-4.42626362341E+01	-2.22554375108E+00	-3.87664863504E+01
5.22352399773E+08	-8.91710968645E-03	-4.05169237639E+01	-9.14983442657E+01	-8.32021074571E+00	-8.12132047072E+01	-1.84432869371E+01	-2.23622431646E+00	-3.93737526756E+01
5.22612063682E+08	-1.23827067600E-02	-4.05666042587E+01	-8.87803437409E+01	-7.88772194149E+01	-8.12671068550E+01	-5.24502695879E+01	-2.23300186373E+00	-3.98591116911E+01
5.22871856671E+08	-5.76548010953E-03	-4.05376655050E+01	-9.12055444804E+01	-6.61112743707E+01	-9.04995955103E+01	-8.18215816862E+01	-2.23831537256E+00	-4.03761515461E+01
5.23131778805E+08	-1.39511837682E-02	-4.05744427920E+01	-9.40917521528E+01	-6.74854473774E+00	-8.64873603142E+01	+1.02691755166E+01	-2.23967617046E+00	-4.09365391829E+01
5.23391830147E+08	-9.09576239962E-03	-4.06251894386E+01	-8.80023707102E+01	+2.63005579881E+01	-8.85614610029E+01	-6.19985005658E+01	-2.24595145485E+00	-4.14749194886E+01
5.23652010762E+08	-1.91546230270E-02	-4.06600997815E+01	-8.65584318224E+01	-1.13271690278E+01	-8.87125899522E+01	-5.93325023994E+01	-2.25380474445E+00	-4.20357056270E+01
5.23912320714E+08	-1.21923679870E-02	-4.06507826330E+01	-9.50370463484E+01	+6.88312382935E-01	-8.86281622087E+01	-6.29762072755E+00	-2.25840494427E+00	-4.25701819705E+01
5.24172760067E+08	-9.23985288235E-03	-4.06836415038E+01	-8.98289855662E+01	-1.36387924007E+02	-9.45501458843E+01	-8.60563569563E+01	-2.26136275395E+00	-4.30583476626E+01
5.24433328886E+08	-1.60586293033E-02	-4.07313927166E+01	-9.11040514940E+01	-8.87508702626E+01	-9.18824917616E+01	+1.05197922064E+01	-2.26648801076E+00	-4.36589855413E+01
5.24694027235E+08	-9.93190437722E-03	-4.06975740828E+01	-9.11296505287E+01	-1.33123962097E+02	-9.14292519047E+01	-7.62490684421E+01	-2.26914987025E+00	-4.41907357301E+01
5.24954855178E+08	-1.47297768150E-02	-4.07255468719E+01	-8.76551269387E+01	-3.43900492910E+01	-8.56262528051E+01	+1.85536703793E+01	-2.27972645551E+00	-4.47256095631E+01
5.25215812781E+08	-8.42712676960E-03	-4.07272706364E+01	-1.01341926170E+02	-9.22900101124E+01	-8.82902758737E+01	+1.92706424382E+01	-2.28353929581E+00	-4.53087848467E+01
5.25476900106E+08	-1.16505825277E-02	-4.08112834859E+01	-8.23392618327E+01	-7.10315790111E+00	-9.19576622786E+01	-7.19375734228E+01	-2.28368448677E+00	-4.58332682139E+01
5.25738117220E+08	-1.48505283346E-02	-4.07991062891E+01	-9.68163391803E+01	-4.35801259954E+01	-9.47658259947E+01	+8.09287231995E+01	-2.29146821418E+00	-4.64018766361E+01
5.25999464185E+08	-9.67783515843E-03	-4.08035170476E+01	-9.29059343935E+01	-2.97348178338E+01	-8.56244754362E+01	-1.04944999179E+01	-2.30643327054E+00	-4.70080881427E+01
5.26260941068E+08	-1.38045398448E-02	-4.08692569577E+01	-9.59397080344E+01	-9.27105085303E+00	-8.99625570262E+01	-3.57506818472E+01	-2.30092420385E+00	-4.75065724469E+01
5.26522547932E+08	-1.69820837241E-02	-4.08440280697E+01	-9.57705604169E+01	+1.40342432577E+01	-9.28933723979E+01	+5.79690052005E+01	-2.30853235757E+00	-4.80862497386E+01
5.26784284841E+08	-1.27364870610E-02	-4.08852693638E+01	-8.94121983130E+01	-7.17807454195E+01	-8.34291335604E+01	-5.44259382002E+01	-2.31540307035E+00	-4.85697406774E+01
5.27046151862E+08	-1.59803313770E-02	-4.09088069797E+01	-8.68114952699E+01	-1.22087575781E+02	-8.49319045245E+01	+4.36353048450E+00	-2.32446574192E+00	-4.92279788560E+01
5.27308149058E+08	-1.68891710972E-02	-4.09315064326E+01	-8.89652991090E+01	-9.68919162850E+01	-8.94033576330E+01	-7.28809172709E+01	-2.32375294038E+00	-4.97054412997E+01
5.27570276494E+08	-1.85751345037E-02	-4.09650485610E+01	-8.89859992922E+01	-4.27871366517E+01	-9.00232637014E+01	-2.89189923060E+01	-2.32879457749E+00	-5.02991681458E+01
5.27832534235E+08	-1.53225496821E-02	-4.10117750949E+01	-9.95206062288E+01	+7.82840027864E+01	-9.06389094628E+01	-1.34262765411E+02	-2.33508660885E+00	-5.08483084879E+01
5.28094922345E+08	-1.04266795749E-02	-4.10219629309E+01	-8.71405597096E+01	-1.55136397688E+02	-9.02832004187E+01	+1.76939505079E+00	-2.34635056029E+00	-5.14000959679E+01
5.28357440890E+08	-1.37335798023E-02	-4.10219745551E+01	-9.07102987589E+01	-5.03032000530E+01	-8.67268437422E+01	-9.33337411045E+01	-2.34869543564E+00	-5.19280606524E+01
5.28620089934E+08	-1.86212197606E-02	-4.10371580514E+01	-9.07034314113E+01	-1.22837417188E+02	-1.05322022445E+02	+7.27023741359E+01	-2.34743217585E+00	-5.25370413114E+01
5.28882869543E+08	-1.71160566370E-02	-4.10829577682E+01	-8.46724330572E+01	-9.07709140206E+00	-9.36634754791E+01	+9.92469005938E+01	-2.35220414017E+00	-5.30352751333E+01
5.29145779780E+08	-1.25278748547E-02	-4.10612024773E+01	-8.81869337022E+01	-9.27970244341E+01	-8.65926757405E+01	-4.93686021339E+01	-2.36355504924E+00	-5.35851578187E+01
5.29408820711E+08	-1.62303571511E-02	-4.11108092103E+01	-8.70392746429E+01	-6.69139470062E+01	-8.53526763486E+01	-8.43784643744E+01	-2.36937809878E+00	-5.41686007146E+01
