# Hz S DB R 50
! CMT, C2409, 19096212, 19.2.3/2
! Date: 4/1/2022 3:32:50 AM
! Data: Format (Calibration Info)
! Freq	S11:dB/Ang(F2)	S21:dB/Ang(F2)	S12:dB/Ang(F2)	S22:dB/Ang(F2)
5.00000000000E+08	-3.57789665883E+01	-1.44117049012E+02	-7.38373538180E-02	-5.08660280366E+01	-7.50729955355E-02	-5.08767111425E+01	-3.55854686669E+01	-1.45985276030E+02
5.00248552423E+08	-3.57863206193E+01	-1.44487467396E+02	-7.40574627669E-02	-5.09009869887E+01	-7.47995164793E-02	-5.09028866492E+01	-3.55554898251E+01	-1.46100754205E+02
5.00497228402E+08	-3.57825735604E+01	-1.44543458366E+02	-7.31511346775E-02	-5.09150391610E+01	-7.51837078192E-02	-5.09249575494E+01	-3.55915587197E+01	-1.45947627946E+02
5.00746028000E+08	-3.57805691096E+01	-1.44516394013E+02	-7.48189566245E-02	-5.09473183389E+01	-7.36063877239E-02	-5.09509944368E+01	-3.55934158479E+01	-1.45962024628E+02
5.00994951277E+08	-3.57611844870E+01	-1.44517922900E+02	-7.32910920866E-02	-5.09781670357E+01	-7.52326044591E-02	-5.09739242493E+01	-3.55581681674E+01	-1.46098119925E+02
5.01243998295E+08	-3.57308032706E+01	-1.44713266939E+02	-7.29029956435E-02	-5.09939251216E+01	-7.51762107291E-02	-5.10023875062E+01	-3.55797405457E+01	-1.46078095130E+02
5.01493169115E+08	-3.57324917495E+01	-1.44853305631E+02	-7.41687722574E-02	-5.10298666343E+01	-7.55677364368E-02	-5.10128715371E+01	-3.55712708222E+01	-1.46002927018E+02
5.01742463799E+08	-3.57473924265E+01	-1.44818172411E+02	-7.24297279093E-02	-5.10502967986E+01	-7.47001100672E-02	-5.10526550580E+01	-3.55491101843E+01	-1.46219191184E+02
5.01991882409E+08	-3.57272490177E+01	-1.44984626200E+02	-7.27282646522E-02	-5.10678887278E+01	-7.45385249497E-02	-5.10807041323E+01	-3.56103250042E+01	-1.46071874385E+02
5.02241425007E+08	-3.57048898887E+01	-1.45049341646E+02	-7.43920302787E-02	-5.11041673195E+01	-7.47210245361E-02	-5.10991903623E+01	-3.56083628892E+01	-1.46196050240E+02
5.02491091653E+08	-3.57133347831E+01	-1.45122288646E+02	-7.35807470709E-02	-5.11259135890E+01	-7.56516291796E-02	-5.11348796736E+01	-3.56225494446E+01	-1.45958629905E+02
5.02740882409E+08	-3.57586916151E+01	-1.44889272281E+02	-7.29296660711E-02	-5.11472723986E+01	-7.53522970958E-02	-5.11484180279E+01	-3.56027105334E+01	-1.46342797539E+02
5.02990797338E+08	-3.57097335561E+01	-1.45019220509E+02	-7.37397691180E-02	-5.11757527150E+01	-7.54708554757E-02	-5.11813495344E+01	-3.55991844786E+01	-1.46284765380E+02
5.03240836501E+08	-3.57393627173E+01	-1.45237019946E+02	-7.33698926274E-02	-5.12083892991E+01	-7.60691992750E-02	-5.12041293180E+01	-3.56057592635E+01	-1.46368009600E+02
5.03490999959E+08	-3.57129468292E+01	-1.45347001770E+02	-7.39245483790E-02	-5.12361052942E+01	-7.56110924958E-02	-5.12298633857E+01	-3.56261056092E+01	-1.46448630786E+02
5.03741287775E+08	-3.56839023996E+01	-1.45219668295E+02	-7.35609819821E-02	-5.12522025697E+01	-7.66584730130E-02	-5.12580034096E+01	-3.56299260156E+01	-1.46389646751E+02
5.03991700010E+08	-3.56509270673E+01	-1.45526758158E+02	-7.45801445970E-02	-5.12718636434E+01	-7.56029709359E-02	-5.12765280437E+01	-3.56091288632E+01	-1.46255460407E+02
5.04242236726E+08	-3.56825353036E+01	-1.45647731084E+02	-7.48660246940E-02	-5.13014803853E+01	-7.41378162352E-02	-5.13043445248E+01	-3.56154991417E+01	-1.46484209408E+02
5.04492897985E+08	-3.56825180770E+01	-1.45523938698E+02	-7.47844884330E-02	-5.13352418348E+01	-7.54454036817E-02	-5.13271279930E+01	-3.56121768105E+01	-1.46467508495E+02
5.04743683850E+08	-3.56823997652E+01	-1.45464559756E+02	-7.46978582525E-02	-5.13570335128E+01	-7.52781978013E-02	-5.13508680327E+01	-3.56442505027E+01	-1.46645316873E+02
5.04994594381E+08	-3.57049651183E+01	-1.45678534242E+02	-7.34288530566E-02	-5.13801597508E+01	-7.66456932154E-02	-5.13809660758E+01	-3.56407204488E+01	-1.46806683310E+02
5.05245629641E+08	-3.56927221804E+01	-1.45802925207E+02	-7.45176915801E-02	-5.14033798795E+01	-7.60046580862E-02	-5.14175154189E+01	-3.56380879660E+01	-1.46605350030E+02
5.05496789691E+08	-3.56612773306E+01	-1.45909292455E+02	-7.43476450292E-02	-5.14294466320E+01	-7.57938847440E-02	-5.14362082016E+01	-3.56421236552E+01	-1.46690758618E+02
5.05748074595E+08	-3.56446818906E+01	-1.45874791246E+02	-7.49720429918E-02	-5.14587112650E+01	-7.63286260489E-02	-5.14586367147E+01	-3.56447825941E+01	-1.46502617357E+02
5.05999484413E+08	-3.56456502206E+01	-1.46010215437E+02	-7.49250718658E-02	-5.14854658155E+01	-7.52734876895E-02	-5.14798559132E+01	-3.56297289840E+01	-1.46850795615E+02
5.06251019209E+08	-3.56542287768E+01	-1.46106530660E+02	-7.51136067411E-02	-5.15119402228E+01	-7.66919499072E-02	-5.15088122497E+01	-3.56480298088E+01	-1.46784127269E+02
5.06502679044E+08	-3.56614757221E+01	-1.46086105256E+02	-7.51240765279E-02	-5.15285898149E+01	-7.57092767402E-02	-5.15332882956E+01	-3.56555218536E+01	-1.47114809848E+02
5.06754463980E+08	-3.56366370875E+01	-1.46171666530E+02	-7.49161768516E-02	-5.15593946674E+01	-7.66095102056E-02	-5.15527596183E+01	-3.56196627756E+01	-1.46957891929E+02
5.07006374079E+08	-3.56095401725E+01	-1.46189546910E+02	-7.52292377893E-02	-5.15794015399E+01	-7.61519408480E-02	-5.15892609350E+01	-3.56315925773E+01	-1.47005067129E+02
5.07258409405E+08	-3.56344030959E+01	-1.46380106816E+02	-7.41444334159E-02	-5.16103618432E+01	-7.69205322021E-02	-5.15985399969E+01	-3.56476437578E+01	-1.47104118526E+02
5.07510570018E+08	-3.56017270372E+01	-1.46432628924E+02	-7.38757829825E-02	-5.16380959417E+01	-7.54709594548E-02	-5.16344069197E+01	-3.56347846705E+01	-1.46994655278E+02
5.07762855982E+08	-3.56026474865E+01	-1.46491363339E+02	-7.52774530337E-02	-5.16629019751E+01	-7.55780832006E-02	-5.16623143102E+01	-3.56718962906E+01	-1.47434344194E+02
5.08015267358E+08	-3.56003439156E+01	-1.46384374586E+02	-7.55036813174E-02	-5.16843908117E+01	-7.63597276845E-02	-5.16866150302E+01	-3.56411032040E+01	-1.47088769896E+02
5.08267804209E+08	-3.55792852823E+01	-1.46598039401E+02	-7.52866842743E-02	-5.17098177325E+01	-7.60726664637E-02	-5.17124881647E+01	-3.56723501366E+01	-1.47158451662E+02
5.08520466597E+08	-3.55709575148E+01	-1.46694321391E+02	-7.50770173307E-02	-5.17398356081E+01	-7.56276453184E-02	-5.17341098180E+01	-3.56622898305E+01	-1.47103649760E+02
5.08773254585E+08	-3.55617331747E+01	-1.46815158373E+02	-7.61154460339E-02	-5.17605074859E+01	-7.58961244370E-02	-5.17626438364E+01	-3.56691993815E+01	-1.47417862171E+02
5.09026168235E+08	-3.55776567929E+01	-1.47073839509E+02	-7.41739593510E-02	-5.17883829702E+01	-7.64254619875E-02	-5.17887477358E+01	-3.56317487685E+01	-1.47461409061E+02
5.09279207610E+08	-3.55592648882E+01	-1.46870272202E+02	-7.45576615567E-02	-5.18125450509E+01	-7.74657595471E-02	-5.18214364484E+01	-3.56739609758E+01	-1.47378873537E+02
5.09532372772E+08	-3.55390275257E+01	-1.46998203670E+02	-7.60356082293E-02	-5.18444922939E+01	-7.60013959465E-02	-5.18438729528E+01	-3.56659922905E+01	-1.47333831542E+02
5.09785663784E+08	-3.55443124862E+01	-1.47053611835E+02	-7.58587169755E-02	-5.18626466664E+01	-7.66476128387E-02	-5.18645049653E+01	-3.56603185660E+01	-1.47516627809E+02
5.10039080707E+08	-3.55279316318E+01	-1.47225496439E+02	-7.54414072127E-02	-5.18930685020E+01	-7.73553862613E-02	-5.18920714214E+01	-3.56793501757E+01	-1.47296002006E+02
5.10292623606E+08	-3.55042550832E+01	-1.47364338052E+02	-7.56452144827E-02	-5.19181341837E+01	-7.61907495318E-02	-5.19212835570E+01	-3.56639441164E+01	-1.47632039188E+02
5.10546292542E+08	-3.55035798522E+01	-1.47307879996E+02	-7.66195893280E-02	-5.19446970332E+01	-7.80809006959E-02	-5.19423789776E+01	-3.56658305601E+01	-1.47686364675E+02
5.10800087578E+08	-3.54821530844E+01	-1.47238633749E+02	-7.60473592657E-02	-5.19690198585E+01	-7.60562610470E-02	-5.19617191663E+01	-3.56717244640E+01	-1.47830336344E+02
5.11054008776E+08	-3.55013609793E+01	-1.47542528947E+02	-7.66506230947E-02	-5.19976806493E+01	-7.72574163163E-02	-5.19966401398E+01	-3.56578368621E+01	-1.47773991539E+02
5.11308056201E+08	-3.54889418885E+01	-1.47289684025E+02	-7.62441039739E-02	-5.20167427313E+01	-7.69524254204E-02	-5.20246779836E+01	-3.56565952685E+01	-1.47767137250E+02
5.11562229913E+08	-3.54758011050E+01	-1.47322400615E+02	-7.44161814050E-02	-5.20439548232E+01	-7.66008373178E-02	-5.20507593501E+01	-3.56875006993E+01	-1.47769172463E+02
5.11816529976E+08	-3.54617052548E+01	-1.47637834104E+02	-7.55025204827E-02	-5.20698826078E+01	-7.70064880662E-02	-5.20645676630E+01	-3.56491477385E+01	-1.47882018999E+02
5.12070956453E+08	-3.54793252505E+01	-1.47618328020E+02	-7.59641543031E-02	-5.21047137090E+01	-7.77810909495E-02	-5.20987576508E+01	-3.56592237437E+01	-1.48080434441E+02
5.12325509407E+08	-3.54572788319E+01	-1.47696490455E+02	-7.58113118633E-02	-5.21153897502E+01	-7.56404893443E-02	-5.21219360354E+01	-3.56463237588E+01	-1.48126100420E+02
5.12580188900E+08	-3.54433508753E+01	-1.47593932202E+02	-7.71895668685E-02	-5.21509468674E+01	-7.60610806254E-02	-5.21564919001E+01	-3.56446414312E+01	-1.48058184516E+02
5.12834994996E+08	-3.54124972771E+01	-1.47757212066E+02	-7.59943273842E-02	-5.21734943777E+01	-7.54797103565E-02	-5.21784671054E+01	-3.56302121015E+01	-1.48261367163E+02
5.13089927757E+08	-3.53743645797E+01	-1.47759313874E+02	-7.62490921153E-02	-5.22137580641E+01	-7.62085297057E-02	-5.22004452850E+01	-3.56224631943E+01	-1.48200367260E+02
5.13344987246E+08	-3.53966354384E+01	-1.47764314527E+02	-7.56161621349E-02	-5.22285413033E+01	-7.64886547609E-02	-5.22296538246E+01	-3.56262986757E+01	-1.48411168690E+02
5.13600173527E+08	-3.54071963521E+01	-1.47764862270E+02	-7.65220348700E-02	-5.22556476129E+01	-7.67373924649E-02	-5.22497706195E+01	-3.56513357917E+01	-1.48473917409E+02
5.13855486662E+08	-3.53699590104E+01	-1.48061121338E+02	-7.48117109345E-02	-5.22849701934E+01	-7.63517217676E-02	-5.22838161009E+01	-3.56107212419E+01	-1.48378325349E+02
5.14110926714E+08	-3.53797774496E+01	-1.48023610358E+02	-7.56914304640E-02	-5.23068943429E+01	-7.62572094846E-02	-5.22989446039E+01	-3.56180218898E+01	-1.48523491701E+02
5.14366493747E+08	-3.53780589898E+01	-1.48002291681E+02	-7.53349665390E-02	-5.23387734040E+01	-7.73552216575E-02	-5.23280782810E+01	-3.56157872026E+01	-1.48620526570E+02
5.14622187824E+08	-3.53558559341E+01	-1.48159588776E+02	-7.59815362679E-02	-5.23552218892E+01	-7.67395374826E-02	-5.23537376258E+01	-3.56112018370E+01	-1.48704803878E+02
5.14878009007E+08	-3.52969854870E+01	-1.48160316480E+02	-7.83089127513E-02	-5.23821560296E+01	-7.48148760485E-02	-5.23869947527E+01	-3.55877930540E+01	-1.48551609923E+02
5.15133957360E+08	-3.53229845954E+01	-1.48319568863E+02	-7.62564872466E-02	-5.24042246131E+01	-7.74659904543E-02	-5.24134397639E+01	-3.56030136339E+01	-1.48711371805E+02
5.15390032947E+08	-3.53053766883E+01	-1.48211324570E+02	-7.62729668735E-02	-5.24387836975E+01	-7.63951498956E-02	-5.24310706932E+01	-3.56014065309E+01	-1.48939619480E+02
5.15646235829E+08	-3.52930608118E+01	-1.48449374507E+02	-7.59840356599E-02	-5.24649413941E+01	-7.68230728429E-02	-5.24670933312E+01	-3.56524972302E+01	-1.48554271206E+02
5.15902566072E+08	-3.52862908122E+01	-1.48437336706E+02	-7.70497692035E-02	-5.24913350983E+01	-7.58344122482E-02	-5.24896366444E+01	-3.56493124661E+01	-1.48730857575E+02
5.16159023737E+08	-3.52647127510E+01	-1.48525888086E+02	-7.60177171637E-02	-5.25162452748E+01	-7.74981040792E-02	-5.25238329268E+01	-3.56121196431E+01	-1.48775390351E+02
5.16415608889E+08	-3.52368796275E+01	-1.48354391212E+02	-7.69028863021E-02	-5.25360971189E+01	-7.75020955395E-02	-5.25444077721E+01	-3.56332714324E+01	-1.48860053040E+02
5.16672321591E+08	-3.52517845916E+01	-1.48553941500E+02	-7.63192723828E-02	-5.25665194443E+01	-7.67245388598E-02	-5.25667734080E+01	-3.56156481973E+01	-1.48991507087E+02
5.16929161905E+08	-3.52203825924E+01	-1.48660093375E+02	-7.68701488343E-02	-5.25963065665E+01	-7.59842737225E-02	-5.25879683837E+01	-3.55955229739E+01	-1.48742559693E+02
5.17186129897E+08	-3.52150712432E+01	-1.48758201235E+02	-7.71700605318E-02	-5.26139005169E+01	-7.77735200482E-02	-5.26263025560E+01	-3.56120967271E+01	-1.48868032039E+02
5.17443225628E+08	-3.52127137322E+01	-1.48622180513E+02	-7.71615190663E-02	-5.26408527580E+01	-7.73524648815E-02	-5.26426134898E+01	-3.55911497615E+01	-1.49047564111E+02
5.17700449163E+08	-3.51916590923E+01	-1.48920570548E+02	-7.66224671841E-02	-5.26712893503E+01	-7.74058076656E-02	-5.26719809452E+01	-3.55615514863E+01	-1.49231265394E+02
5.17957800564E+08	-3.51661610034E+01	-1.48946654261E+02	-7.66437437785E-02	-5.26943332677E+01	-7.76467950953E-02	-5.26867875932E+01	-3.56184587065E+01	-1.49139873324E+02
5.18215279897E+08	-3.51653010096E+01	-1.48787949984E+02	-7.69484210175E-02	-5.27161904885E+01	-7.77823612246E-02	-5.27228124667E+01	-3.56049289908E+01	-1.49137648171E+02
5.18472887224E+08	-3.51477162046E+01	-1.48908297936E+02	-7.73041152532E-02	-5.27454861856E+01	-7.85410941041E-02	-5.27452322318E+01	-3.55592837575E+01	-1.49140927274E+02
5.18730622608E+08	-3.51182553076E+01	-1.48928736266E+02	-7.78149206724E-02	-5.27801884960E+01	-7.77599878413E-02	-5.27792551749E+01	-3.55629329996E+01	-1.49011113171E+02
5.18988486114E+08	-3.51287208802E+01	-1.48949159277E+02	-7.65987528483E-02	-5.28074936712E+01	-7.64744527890E-02	-5.28034521623E+01	-3.55645368010E+01	-1.49292517198E+02
5.19246477806E+08	-3.51095460742E+01	-1.49162434570E+02	-7.74171507706E-02	-5.28230674668E+01	-7.68002014752E-02	-5.28275579023E+01	-3.55466957380E+01	-1.49260376371E+02
5.19504597746E+08	-3.50668790312E+01	-1.49202047993E+02	-7.67661652461E-02	-5.28506970576E+01	-8.06330752044E-02	-5.28529903329E+01	-3.55201193066E+01	-1.49381781676E+02
5.19762845999E+08	-3.50790249318E+01	-1.49108964266E+02	-7.71216222647E-02	-5.28824168670E+01	-7.81287149538E-02	-5.28906396666E+01	-3.55234196981E+01	-1.49262541152E+02
5.20021222628E+08	-3.50435502916E+01	-1.49136297786E+02	-7.75657716158E-02	-5.29060795587E+01	-7.70012781319E-02	-5.29049309780E+01	-3.55209487552E+01	-1.49604364707E+02
5.20279727698E+08	-3.50530581805E+01	-1.49378339057E+02	-7.64198503002E-02	-5.29219979712E+01	-7.70874640742E-02	-5.29268916180E+01	-3.54829056270E+01	-1.49437075375E+02
5.20538361271E+08	-3.49981489338E+01	-1.49456917788E+02	-7.82524303812E-02	-5.29623723517E+01	-7.76398828408E-02	-5.29587879412E+01	-3.55146452760E+01	-1.49501366479E+02
5.20797123413E+08	-3.50112478646E+01	-1.49392853366E+02	-7.76509160706E-02	-5.29782198710E+01	-7.66189552821E-02	-5.29818735485E+01	-3.54833602523E+01	-1.49650763070E+02
5.21056014187E+08	-3.49822259523E+01	-1.49318100367E+02	-7.79188453383E-02	-5.30164935760E+01	-7.78032270554E-02	-5.30152066838E+01	-3.54607529691E+01	-1.49792582998E+02
5.21315033656E+08	-3.49861142494E+01	-1.49453151173E+02	-7.78179197882E-02	-5.30247903545E+01	-7.74845566608E-02	-5.30360076944E+01	-3.54814136988E+01	-1.49842435080E+02
5.21574181886E+08	-3.49792752355E+01	-1.49552378189E+02	-7.71862752095E-02	-5.30706365642E+01	-7.83256492278E-02	-5.30677821725E+01	-3.54753928980E+01	-1.49740847603E+02
5.21833458939E+08	-3.49381988307E+01	-1.49509617730E+02	-7.66933772793E-02	-5.30890414285E+01	-7.83895342176E-02	-5.30923596187E+01	-3.54295513923E+01	-1.49739002981E+02
5.22092864880E+08	-3.49408299878E+01	-1.49505613514E+02	-7.73422518875E-02	-5.31153111336E+01	-7.70087260981E-02	-5.31217722514E+01	-3.54322199812E+01	-1.49875168289E+02
5.22352399773E+08	-3.49365601485E+01	-1.49645174631E+02	-7.73653050176E-02	-5.31463585966E+01	-7.79259998517E-02	-5.31431533212E+01	-3.54091036689E+01	-1.49909426823E+02
5.22612063682E+08	-3.49281104548E+01	-1.49500232578E+02	-7.78957237792E-02	-5.31682351190E+01	-7.80324622030E-02	-5.31635863968E+01	-3.54138249201E+01	-1.50147419220E+02
5.22871856671E+08	-3.49033571362E+01	-1.49526324577E+02	-7.85507079398E-02	-5.31951948798E+01	-7.86918065688E-02	-5.31922831698E+01	-3.53928959329E+01	-1.50172997829E+02
5.23131778805E+08	-3.48991172233E+01	-1.49700748733E+02	-7.77655884647E-02	-5.32274605711E+01	-7.75564145306E-02	-5.32280433106E+01	-3.54003977487E+01	-1.50058718280E+02
5.23391830147E+08	-3.48582465412E+01	-1.49553695479E+02	-7.81647378041E-02	-5.32526417873E+01	-7.83775146599E-02	-5.32507244000E+01	-3.53867649385E+01	-1.50152879037E+02
5.23652010762E+08	-3.48467002381E+01	-1.49777911503E+02	-7.69840708485E-02	-5.32769810135E+01	-7.82120944234E-02	-5.32844467378E+01	-3.53691072443E+01	-1.50239655689E+02
5.23912320714E+08	-3.48418932811E+01	-1.49796530905E+02	-7.82590728978E-02	-5.32990710164E+01	-7.82836025491E-02	-5.33079289977E+01	-3.53337654369E+01	-1.50349490649E+02
5.24172760067E+08	-3.48242576985E+01	-1.49700042042E+02	-7.83472353517E-02	-5.33252383792E+01	-7.90638124273E-02	-5.33238745575E+01	-3.53573153971E+01	-1.50475214000E+02
5.24433328886E+08	-3.48149233572E+01	-1.49977444309E+02	-7.75383774872E-02	-5.33525450189E+01	-7.78576281563E-02	-5.33580843888E+01	-3.53363340056E+01	-1.50498338534E+02
5.24694027235E+08	-3.47832886887E+01	-1.49609700785E+02	-7.75470339032E-02	-5.33805879529E+01	-7.69103004175E-02	-5.33822790355E+01	-3.52912644663E+01	-1.50696637064E+02
5.24954855178E+08	-3.47598866492E+01	-1.49844344159E+02	-7.79100957603E-02	-5.34152589933E+01	-7.78886596044E-02	-5.34092897484E+01	-3.53257337965E+01	-1.50561977795E+02
5.25215812781E+08	-3.47470848522E+01	-1.49864252336E+02	-7.89415586304E-02	-5.34263998869E+01	-7.93177337371E-02	-5.34309453947E+01	-3.53055420257E+01	-1.50635607860E+02
5.25476900106E+08	-3.47473857065E+01	-1.49880710063E+02	-7.72161426205E-02	-5.34640375818E+01	-7.88588792965E-02	-5.34663941461E+01	-3.52846168023E+01	-1.50715237625E+02
5.25738117220E+08	-3.47343335559E+01	-1.50081354490E+02	-7.68855126913E-02	-5.34907466078E+01	-7.94107865912E-02	-5.34912610010E+01	-3.52717530578E+01	-1.50604691589E+02
5.25999464185E+08	-3.47262434024E+01	-1.49914242668E+02	-7.77520755856E-02	-5.35081194980E+01	-7.80590572045E-02	-5.35193206694E+01	-3.52477955898E+01	-1.50782782253E+02
5.26260941068E+08	-3.47145088589E+01	-1.50177529414E+02	-7.88037036922E-02	-5.35420377346E+01	-7.73183314088E-02	-5.35463781921E+01	-3.52510008780E+01	-1.50918526133E+02
5.26522547932E+08	-3.46790098634E+01	-1.50254786282E+02	-7.82045262375E-02	-5.35642317887E+01	-7.94342696257E-02	-5.35689466323E+01	-3.52222199046E+01	-1.50887800650E+02
5.26784284841E+08	-3.46692896692E+01	-1.50101204820E+02	-7.86129869383E-02	-5.35970063627E+01	-7.93586018534E-02	-5.36098745734E+01	-3.51997816345E+01	-1.50860941508E+02
5.27046151862E+08	-3.46437532603E+01	-1.50113242276E+02	-7.88825729135E-02	-5.36242066208E+01	-7.89922740369E-02	-5.36280307718E+01	-3.52018667355E+01	-1.50799854683E+02
5.27308149058E+08	-3.46214928291E+01	-1.50101574001E+02	-7.80235875371E-02	-5.36499917416E+01	-7.93679818327E-02	-5.36555311898E+01	-3.51643481575E+01	-1.51094972896E+02
5.27570276494E+08	-3.46252941672E+01	-1.50179255257E+02	-7.90238440406E-02	-5.36698091836E+01	-7.84545780069E-02	-5.36824336837E+01	-3.51827791982E+01	-1.51159588660E+02
5.27832534235E+08	-3.45798474345E+01	-1.50267699919E+02	-7.88133720573E-02	-5.37001147773E+01	-7.89905350695E-02	-5.37122385599E+01	-3.51502458287E+01	-1.51231938172E+02
5.28094922345E+08	-3.45830849226E+01	-1.50180190154E+02	-7.85470679953E-02	-5.37292410452E+01	-7.97217831435E-02	-5.37346865503E+01	-3.51056642138E+01	-1.50989017982E+02
5.28357440890E+08	-3.45970245604E+01	-1.50246800401E+02	-7.90778427058E-02	-5.37564360552E+01	-7.90906123056E-02	-5.37590438061E+01	-3.51140113954E+01	-1.50920375805E+02
5.28620089934E+08	-3.45598469402E+01	-1.50296855716E+02	-7.96398016076E-02	-5.37795568591E+01	-7.93057139098E-02	-5.37834963488E+01	-3.51123218910E+01	-1.51315435261E+02
5.28882869543E+08	-3.45460402379E+01	-1.50176266903E+02	-7.78847493556E-02	-5.38024972058E+01	-7.91364051762E-02	-5.38067428125E+01	-3.50721801624E+01	-1.51197666917E+02
5.29145779780E+08	-3.45395496079E+01	-1.50246434312E+02	-7.84662999155E-02	-5.38251943071E+01	-8.03062610005E-02	-5.38336696001E+01	-3.50567010215E+01	-1.51374480710E+02
5.29408820711E+08	-3.44995163744E+01	-1.50427836974E+02	-7.81426339645E-02	-5.38489166623E+01	-7.90055123438E-02	-5.38617971281E+01	-3.50497101791E+01	-1.51404943718E+02
