# Hz S DB R 50
! CMT, C2409, 19096212, 19.2.3/2
! Date: 4/1/2022 3:28:42 AM
! Data: Format (Calibration Info)
! Freq	S11:dB/Ang(F2)	S21:dB/Ang(F2)	S12:dB/Ang(F2)	S22:dB/Ang(F2)
5.00000000000E+08	-2.38520200716E+01	-1.50859153681E+02	-1.02604756767E-01	-6.04355036490E+01	-1.08256104070E-01	-6.04212643526E+01	-2.39369153581E+01	-1.54700334480E+02
5.00248552423E+08	-2.38482435678E+01	-1.50993408154E+02	-1.01857070595E-01	-6.04666309249E+01	-1.07175506455E-01	-6.04477487170E+01	-2.39273359095E+01	-1.54761407880E+02
5.00497228402E+08	-2.38449985616E+01	-1.51009604446E+02	-1.02043231093E-01	-6.04840270977E+01	-1.07421428041E-01	-6.04800231929E+01	-2.39281487881E+01	-1.54741374654E+02
5.00746028000E+08	-2.38403552676E+01	-1.51023723940E+02	-1.03745534561E-01	-6.05243973352E+01	-1.06736835033E-01	-6.05129806160E+01	-2.39151459228E+01	-1.54800836157E+02
5.00994951277E+08	-2.38260784487E+01	-1.51016088542E+02	-1.00949112461E-01	-6.05650709641E+01	-1.07346592598E-01	-6.05303315017E+01	-2.39135147802E+01	-1.54810043549E+02
5.01243998295E+08	-2.38157697568E+01	-1.51112746372E+02	-1.03024720054E-01	-6.05903181482E+01	-1.07245633850E-01	-6.05623761460E+01	-2.39134307608E+01	-1.54843287800E+02
5.01493169115E+08	-2.38121957426E+01	-1.51183594336E+02	-1.02275218148E-01	-6.06198590756E+01	-1.07139315627E-01	-6.05981196312E+01	-2.39012663312E+01	-1.54900911069E+02
5.01742463799E+08	-2.38071586506E+01	-1.51210713800E+02	-1.01333292810E-01	-6.06553169942E+01	-1.07650062975E-01	-6.06265941446E+01	-2.38991297170E+01	-1.54909089515E+02
5.01991882409E+08	-2.38025078038E+01	-1.51250631688E+02	-1.01998457082E-01	-6.06787478719E+01	-1.07753348107E-01	-6.06624525447E+01	-2.39010339154E+01	-1.54950940832E+02
5.02241425007E+08	-2.37998738306E+01	-1.51312175178E+02	-1.02910406056E-01	-6.07100622607E+01	-1.08323068600E-01	-6.06880178764E+01	-2.38956114536E+01	-1.54972310336E+02
5.02491091653E+08	-2.37947767515E+01	-1.51338951104E+02	-1.03390623337E-01	-6.07500872898E+01	-1.07425905664E-01	-6.07259180267E+01	-2.38993982442E+01	-1.54969140320E+02
5.02740882409E+08	-2.37985247941E+01	-1.51312175074E+02	-1.01967001966E-01	-6.07697204790E+01	-1.07718893178E-01	-6.07489416967E+01	-2.38917193029E+01	-1.55067852940E+02
5.02990797338E+08	-2.37848337670E+01	-1.51399552256E+02	-1.02787323625E-01	-6.07979098568E+01	-1.08980379863E-01	-6.07841082911E+01	-2.38830078302E+01	-1.55023385892E+02
5.03240836501E+08	-2.37800985758E+01	-1.51430248505E+02	-1.03013933458E-01	-6.08352906348E+01	-1.08690929339E-01	-6.08026871123E+01	-2.38779342531E+01	-1.55138630839E+02
5.03490999959E+08	-2.37772053495E+01	-1.51498052558E+02	-1.03856036538E-01	-6.08592009354E+01	-1.07664030593E-01	-6.08361490258E+01	-2.38765403582E+01	-1.55122493396E+02
5.03741287775E+08	-2.37617804870E+01	-1.51500494111E+02	-1.02584283449E-01	-6.08988793677E+01	-1.08535597814E-01	-6.08697108384E+01	-2.38714227129E+01	-1.55121402036E+02
5.03991700010E+08	-2.37537880046E+01	-1.51605175932E+02	-1.03561213705E-01	-6.09157819772E+01	-1.08717767418E-01	-6.09061328326E+01	-2.38601792980E+01	-1.55125997707E+02
5.04242236726E+08	-2.37557577548E+01	-1.51639941270E+02	-1.03072158541E-01	-6.09546061374E+01	-1.07548351218E-01	-6.09290379215E+01	-2.38620685255E+01	-1.55222658410E+02
5.04492897985E+08	-2.37555328412E+01	-1.51672748086E+02	-1.03699640829E-01	-6.09895804905E+01	-1.09368991273E-01	-6.09511821512E+01	-2.38552680645E+01	-1.55245747877E+02
5.04743683850E+08	-2.37429491184E+01	-1.51669759017E+02	-1.04589391979E-01	-6.10068492673E+01	-1.08964170683E-01	-6.09905414424E+01	-2.38593547125E+01	-1.55311914987E+02
5.04994594381E+08	-2.37403528849E+01	-1.51691181959E+02	-1.02404002106E-01	-6.10493079527E+01	-1.09097133702E-01	-6.10280204566E+01	-2.38561100805E+01	-1.55376018120E+02
5.05245629641E+08	-2.37357202161E+01	-1.51735433906E+02	-1.04071063290E-01	-6.10763189808E+01	-1.09136648415E-01	-6.10621499704E+01	-2.38486589926E+01	-1.55345091982E+02
5.05496789691E+08	-2.37307074730E+01	-1.51830751159E+02	-1.03138588924E-01	-6.11057278235E+01	-1.10101721270E-01	-6.10779349326E+01	-2.38413269629E+01	-1.55383113363E+02
5.05748074595E+08	-2.37208982077E+01	-1.51885383891E+02	-1.03108257970E-01	-6.11359814228E+01	-1.09318752260E-01	-6.11147894015E+01	-2.38433311973E+01	-1.55367257543E+02
5.05999484413E+08	-2.37130990278E+01	-1.51927424882E+02	-1.05630725279E-01	-6.11693259351E+01	-1.08412228783E-01	-6.11347567953E+01	-2.38365896731E+01	-1.55434442445E+02
5.06251019209E+08	-2.37097869967E+01	-1.51955358693E+02	-1.03063113299E-01	-6.11961643453E+01	-1.09701604344E-01	-6.11680200550E+01	-2.38298663306E+01	-1.55495360190E+02
5.06502679044E+08	-2.37098522752E+01	-1.51976121788E+02	-1.03458596400E-01	-6.12238549658E+01	-1.08230593757E-01	-6.11976712181E+01	-2.38283560093E+01	-1.55526401811E+02
5.06754463980E+08	-2.37069706706E+01	-1.52049462685E+02	-1.04336573994E-01	-6.12584374113E+01	-1.09213347425E-01	-6.12275582369E+01	-2.38195109991E+01	-1.55557991073E+02
5.07006374079E+08	-2.36965032773E+01	-1.52079503550E+02	-1.04145274733E-01	-6.12878445394E+01	-1.09178514930E-01	-6.12711642489E+01	-2.38138207055E+01	-1.55537671221E+02
5.07258409405E+08	-2.36964301248E+01	-1.52148230400E+02	-1.03747004219E-01	-6.13130203820E+01	-1.09110329308E-01	-6.12822552054E+01	-2.38103661906E+01	-1.55608476681E+02
5.07510570018E+08	-2.36776915392E+01	-1.52174965626E+02	-1.03372547339E-01	-6.13484664585E+01	-1.10477995847E-01	-6.13259405565E+01	-2.38079897242E+01	-1.55622114856E+02
5.07762855982E+08	-2.36733003522E+01	-1.52196414531E+02	-1.04067896321E-01	-6.13846245233E+01	-1.08672803265E-01	-6.13539689957E+01	-2.38089119357E+01	-1.55739700436E+02
5.08015267358E+08	-2.36743754547E+01	-1.52222400241E+02	-1.06495508646E-01	-6.14108441668E+01	-1.09136537345E-01	-6.13848918926E+01	-2.37958332755E+01	-1.55671904163E+02
5.08267804209E+08	-2.36620935376E+01	-1.52289862026E+02	-1.05375939672E-01	-6.14380172986E+01	-1.08717904280E-01	-6.14121276833E+01	-2.37922023794E+01	-1.55750554466E+02
5.08520466597E+08	-2.36569986251E+01	-1.52336412106E+02	-1.05761304416E-01	-6.14734389905E+01	-1.09263803446E-01	-6.14462739483E+01	-2.37885593857E+01	-1.55724401601E+02
5.08773254585E+08	-2.36532713571E+01	-1.52399994947E+02	-1.05642946533E-01	-6.15014669583E+01	-1.09620950001E-01	-6.14722192045E+01	-2.37827529116E+01	-1.55826240674E+02
5.09026168235E+08	-2.36514534629E+01	-1.52454340786E+02	-1.04880896396E-01	-6.15370585006E+01	-1.10015736917E-01	-6.15054833980E+01	-2.37726842275E+01	-1.55866502408E+02
5.09279207610E+08	-2.36407129503E+01	-1.52448969769E+02	-1.04707625572E-01	-6.15616244912E+01	-1.09832614019E-01	-6.15399546383E+01	-2.37757582654E+01	-1.55887382671E+02
5.09532372772E+08	-2.36316627643E+01	-1.52508266564E+02	-1.06434156092E-01	-6.16047085703E+01	-1.08910053514E-01	-6.15697961703E+01	-2.37677444910E+01	-1.55875437282E+02
5.09785663784E+08	-2.36339056921E+01	-1.52541542653E+02	-1.05369499841E-01	-6.16225493873E+01	-1.10130939134E-01	-6.16039234319E+01	-2.37679040375E+01	-1.55980120425E+02
5.10039080707E+08	-2.36250509044E+01	-1.52600422885E+02	-1.06162761057E-01	-6.16615082291E+01	-1.10823676757E-01	-6.16338381306E+01	-2.37646401741E+01	-1.55905262627E+02
5.10292623606E+08	-2.36114215697E+01	-1.52666931159E+02	-1.05194584585E-01	-6.16856403269E+01	-1.10762930986E-01	-6.16617847489E+01	-2.37583225466E+01	-1.56013203098E+02
5.10546292542E+08	-2.36089381269E+01	-1.52694671792E+02	-1.06703178663E-01	-6.17259511209E+01	-1.09695902209E-01	-6.16916698283E+01	-2.37492937062E+01	-1.56064260786E+02
5.10800087578E+08	-2.36003001592E+01	-1.52702364998E+02	-1.06281063600E-01	-6.17430875683E+01	-1.09236436688E-01	-6.17253072431E+01	-2.37538840060E+01	-1.56108692334E+02
5.11054008776E+08	-2.36010318404E+01	-1.52780274133E+02	-1.06647567111E-01	-6.17754447570E+01	-1.09682246090E-01	-6.17574765967E+01	-2.37415696383E+01	-1.56100246326E+02
5.11308056201E+08	-2.35963796173E+01	-1.52754928334E+02	-1.05710470109E-01	-6.18086856944E+01	-1.09903328594E-01	-6.17852867088E+01	-2.37357799287E+01	-1.56148491472E+02
5.11562229913E+08	-2.35880240759E+01	-1.52788296814E+02	-1.05146764314E-01	-6.18394313754E+01	-1.09728302854E-01	-6.18142488994E+01	-2.37410079756E+01	-1.56142933052E+02
5.11816529976E+08	-2.35789553546E+01	-1.52903777416E+02	-1.05873880101E-01	-6.18741171305E+01	-1.09706417047E-01	-6.18362750289E+01	-2.37259575227E+01	-1.56198786477E+02
5.12070956453E+08	-2.35740215584E+01	-1.52929744083E+02	-1.07305153956E-01	-6.18942449774E+01	-1.10274081468E-01	-6.18742680320E+01	-2.37227894718E+01	-1.56281815650E+02
5.12325509407E+08	-2.35693187604E+01	-1.52963241637E+02	-1.06123437120E-01	-6.19307202421E+01	-1.09491439348E-01	-6.19016875672E+01	-2.37136957656E+01	-1.56298710105E+02
5.12580188900E+08	-2.35623650850E+01	-1.52975886644E+02	-1.08199830761E-01	-6.19684419908E+01	-1.09215382902E-01	-6.19423718138E+01	-2.37102570665E+01	-1.56319269648E+02
5.12834994996E+08	-2.35619000161E+01	-1.53024620375E+02	-1.06310539393E-01	-6.19883070601E+01	-1.09779998139E-01	-6.19802522347E+01	-2.37005363300E+01	-1.56390166978E+02
5.13089927757E+08	-2.35373254725E+01	-1.53076615201E+02	-1.06622961572E-01	-6.20343434809E+01	-1.09518829371E-01	-6.19998034283E+01	-2.36916901187E+01	-1.56364505934E+02
5.13344987246E+08	-2.35332125285E+01	-1.53051222231E+02	-1.05940811881E-01	-6.20549499312E+01	-1.11204863401E-01	-6.20327600022E+01	-2.36909455707E+01	-1.56452135996E+02
5.13600173527E+08	-2.35337993472E+01	-1.53107384193E+02	-1.05965389010E-01	-6.20893590845E+01	-1.10376678094E-01	-6.20622061795E+01	-2.36955742188E+01	-1.56464180040E+02
5.13855486662E+08	-2.35237242572E+01	-1.53215104943E+02	-1.04994735525E-01	-6.21210032541E+01	-1.10145135364E-01	-6.20948495699E+01	-2.36805555083E+01	-1.56487553122E+02
5.14110926714E+08	-2.35202413339E+01	-1.53205261510E+02	-1.06507385515E-01	-6.21437701705E+01	-1.10032734912E-01	-6.21157365289E+01	-2.36766468571E+01	-1.56547537251E+02
5.14366493747E+08	-2.35179889026E+01	-1.53229006435E+02	-1.07032740220E-01	-6.21857122306E+01	-1.11907218046E-01	-6.21492147106E+01	-2.36713842513E+01	-1.56579811612E+02
5.14622187824E+08	-2.35103496516E+01	-1.53306359997E+02	-1.07131820313E-01	-6.22119921111E+01	-1.10733629265E-01	-6.21826452883E+01	-2.36665838981E+01	-1.56591491198E+02
5.14878009007E+08	-2.34942877011E+01	-1.53326509087E+02	-1.07680847088E-01	-6.22403721358E+01	-1.11884321829E-01	-6.22177015043E+01	-2.36578859782E+01	-1.56599022114E+02
5.15133957360E+08	-2.34912671103E+01	-1.53377934697E+02	-1.07209262981E-01	-6.22661248867E+01	-1.10962544758E-01	-6.22451610424E+01	-2.36519726637E+01	-1.56649683190E+02
5.15390032947E+08	-2.34862925666E+01	-1.53410663280E+02	-1.06594757835E-01	-6.23099950298E+01	-1.10767765876E-01	-6.22745141117E+01	-2.36504116136E+01	-1.56764793766E+02
5.15646235829E+08	-2.34763937074E+01	-1.53449565653E+02	-1.08101554000E-01	-6.23377141629E+01	-1.10915948461E-01	-6.23141862047E+01	-2.36507976311E+01	-1.56704760641E+02
5.15902566072E+08	-2.34730985523E+01	-1.53524990652E+02	-1.07618246461E-01	-6.23677634270E+01	-1.10980800656E-01	-6.23430796111E+01	-2.36487005119E+01	-1.56775730051E+02
5.16159023737E+08	-2.34599038880E+01	-1.53563528456E+02	-1.07147902403E-01	-6.23967766503E+01	-1.10210409958E-01	-6.23765822853E+01	-2.36272533892E+01	-1.56808998412E+02
5.16415608889E+08	-2.34543624917E+01	-1.53586518181E+02	-1.06916642133E-01	-6.24278564667E+01	-1.09792596498E-01	-6.24050180427E+01	-2.36310096292E+01	-1.56884669991E+02
5.16672321591E+08	-2.34506645484E+01	-1.53605467973E+02	-1.07674689934E-01	-6.24589620877E+01	-1.11579263321E-01	-6.24401260971E+01	-2.36187968707E+01	-1.56890397559E+02
5.16929161905E+08	-2.34406367894E+01	-1.53633840065E+02	-1.08537850348E-01	-6.24928366553E+01	-1.09996565668E-01	-6.24661282397E+01	-2.36061980205E+01	-1.56891516714E+02
5.17186129897E+08	-2.34343395887E+01	-1.53665510790E+02	-1.07779914039E-01	-6.25277604759E+01	-1.10860200077E-01	-6.24989055268E+01	-2.36100241269E+01	-1.56950095082E+02
5.17443225628E+08	-2.34320511923E+01	-1.53716136489E+02	-1.07476885293E-01	-6.25548847145E+01	-1.11568969922E-01	-6.25240101942E+01	-2.35962620360E+01	-1.57008097676E+02
5.17700449163E+08	-2.34248266080E+01	-1.53791840692E+02	-1.08174380043E-01	-6.25844970214E+01	-1.11972118860E-01	-6.25587739216E+01	-2.35954925627E+01	-1.57039004532E+02
5.17957800564E+08	-2.34088920809E+01	-1.53822353884E+02	-1.06976707097E-01	-6.26156251784E+01	-1.11411439300E-01	-6.25838223318E+01	-2.35964847352E+01	-1.57097319026E+02
5.18215279897E+08	-2.34075038260E+01	-1.53801156186E+02	-1.07487363468E-01	-6.26434052505E+01	-1.12390104800E-01	-6.26229189556E+01	-2.35793376301E+01	-1.57044769453E+02
5.18472887224E+08	-2.33975313603E+01	-1.53872626855E+02	-1.07089913541E-01	-6.26720335550E+01	-1.12274778903E-01	-6.26398233179E+01	-2.35758724133E+01	-1.57149404635E+02
5.18730622608E+08	-2.33917115837E+01	-1.53928202797E+02	-1.08599810178E-01	-6.27088895354E+01	-1.13398219096E-01	-6.26804610954E+01	-2.35724537856E+01	-1.57071452678E+02
5.18988486114E+08	-2.33859231568E+01	-1.53951530013E+02	-1.08412430229E-01	-6.27387331044E+01	-1.11119891023E-01	-6.27163166724E+01	-2.35648856495E+01	-1.57208712733E+02
5.19246477806E+08	-2.33787334051E+01	-1.54008149338E+02	-1.09306457023E-01	-6.27676505413E+01	-1.12471842975E-01	-6.27457434913E+01	-2.35479928374E+01	-1.57213348176E+02
5.19504597746E+08	-2.33673187846E+01	-1.54062205319E+02	-1.07936210202E-01	-6.27926884544E+01	-1.13196785690E-01	-6.27823036540E+01	-2.35501113769E+01	-1.57303747897E+02
5.19762845999E+08	-2.33660463204E+01	-1.54097143256E+02	-1.07620253046E-01	-6.28371709501E+01	-1.11777772056E-01	-6.28158982427E+01	-2.35401104608E+01	-1.57249391791E+02
5.20021222628E+08	-2.33526012100E+01	-1.54110355399E+02	-1.08416897176E-01	-6.28673988538E+01	-1.12405135259E-01	-6.28372140567E+01	-2.35362550387E+01	-1.57360921796E+02
5.20279727698E+08	-2.33497324838E+01	-1.54142413488E+02	-1.08118081400E-01	-6.28937773335E+01	-1.12965223558E-01	-6.28691232995E+01	-2.35171843718E+01	-1.57342141402E+02
5.20538361271E+08	-2.33397410582E+01	-1.54223031888E+02	-1.09518252886E-01	-6.29255222760E+01	-1.11729181848E-01	-6.29027694191E+01	-2.35275698306E+01	-1.57362142075E+02
5.20797123413E+08	-2.33356895498E+01	-1.54226955978E+02	-1.08645005795E-01	-6.29582521413E+01	-1.11548739066E-01	-6.29334671948E+01	-2.35138823051E+01	-1.57446032692E+02
5.21056014187E+08	-2.33236547914E+01	-1.54239616059E+02	-1.10794521946E-01	-6.29901795110E+01	-1.12362685658E-01	-6.29699156567E+01	-2.34997571879E+01	-1.57484478650E+02
5.21315033656E+08	-2.33200587875E+01	-1.54312941752E+02	-1.10533611178E-01	-6.30179781230E+01	-1.11567289420E-01	-6.30041386346E+01	-2.34996097998E+01	-1.57555472539E+02
5.21574181886E+08	-2.33128188254E+01	-1.54343919200E+02	-1.08894606545E-01	-6.30548426724E+01	-1.12476604205E-01	-6.30318790904E+01	-2.35004375018E+01	-1.57531373009E+02
5.21833458939E+08	-2.33016072247E+01	-1.54406355776E+02	-1.09341848133E-01	-6.30830874998E+01	-1.11933798427E-01	-6.30670991986E+01	-2.34831120237E+01	-1.57572638374E+02
5.22092864880E+08	-2.33028480779E+01	-1.54369678157E+02	-1.08816711599E-01	-6.31148875068E+01	-1.12022285938E-01	-6.30917837844E+01	-2.34731394065E+01	-1.57640167024E+02
5.22352399773E+08	-2.32974876276E+01	-1.54460639238E+02	-1.09853667076E-01	-6.31455158821E+01	-1.13995883140E-01	-6.31228560522E+01	-2.34649948688E+01	-1.57647324223E+02
5.22612063682E+08	-2.32901214945E+01	-1.54446649457E+02	-1.10279030587E-01	-6.31721468404E+01	-1.13291753004E-01	-6.31542074370E+01	-2.34646311597E+01	-1.57712382135E+02
5.22871856671E+08	-2.32823684859E+01	-1.54493636073E+02	-1.09937708876E-01	-6.32059759162E+01	-1.13823231724E-01	-6.31802928616E+01	-2.34559098993E+01	-1.57732499652E+02
5.23131778805E+08	-2.32729537382E+01	-1.54578660345E+02	-1.08958969714E-01	-6.32438998223E+01	-1.13665921234E-01	-6.32155057521E+01	-2.34465362470E+01	-1.57762412878E+02
5.23391830147E+08	-2.32645055286E+01	-1.54571301071E+02	-1.09761617492E-01	-6.32764877871E+01	-1.13399246970E-01	-6.32527073841E+01	-2.34419262796E+01	-1.57782383262E+02
5.23652010762E+08	-2.32547261839E+01	-1.54653087851E+02	-1.09197246670E-01	-6.33042761087E+01	-1.13561562556E-01	-6.32847433328E+01	-2.34301920472E+01	-1.57862766400E+02
5.23912320714E+08	-2.32522972864E+01	-1.54692836455E+02	-1.09344666989E-01	-6.33391316167E+01	-1.13192122924E-01	-6.33150740794E+01	-2.34211921656E+01	-1.57892386588E+02
5.24172760067E+08	-2.32439558922E+01	-1.54657455845E+02	-1.09625939515E-01	-6.33667752707E+01	-1.12953719235E-01	-6.33402782882E+01	-2.34262242414E+01	-1.57953324386E+02
5.24433328886E+08	-2.32369332306E+01	-1.54728298703E+02	-1.09040282260E-01	-6.33922830417E+01	-1.12785734517E-01	-6.33790030392E+01	-2.34144740970E+01	-1.57986135207E+02
5.24694027235E+08	-2.32245474773E+01	-1.54699487044E+02	-1.09865789096E-01	-6.34295930319E+01	-1.13553343455E-01	-6.34113070614E+01	-2.34026616201E+01	-1.58016525535E+02
5.24954855178E+08	-2.32148224217E+01	-1.54796868765E+02	-1.09405547051E-01	-6.34594463365E+01	-1.13860379490E-01	-6.34406260047E+01	-2.34006131284E+01	-1.58053844489E+02
5.25215812781E+08	-2.32021975031E+01	-1.54817729098E+02	-1.10329996828E-01	-6.34916991101E+01	-1.14637950368E-01	-6.34690014420E+01	-2.33979015808E+01	-1.58108796838E+02
5.25476900106E+08	-2.32069962944E+01	-1.54833828173E+02	-1.09597953630E-01	-6.35260064156E+01	-1.14140491125E-01	-6.35027070387E+01	-2.33821696416E+01	-1.58108495123E+02
5.25738117220E+08	-2.31947617416E+01	-1.54853577466E+02	-1.09283633489E-01	-6.35531525294E+01	-1.14718020935E-01	-6.35366497966E+01	-2.33758693088E+01	-1.58156722351E+02
5.25999464185E+08	-2.31931103599E+01	-1.54889204838E+02	-1.09519872863E-01	-6.35864686695E+01	-1.13646393300E-01	-6.35663524765E+01	-2.33607895561E+01	-1.58213626345E+02
5.26260941068E+08	-2.31847330386E+01	-1.54992117770E+02	-1.10746261564E-01	-6.36198410112E+01	-1.13402202958E-01	-6.35983349646E+01	-2.33599991792E+01	-1.58267348373E+02
5.26522547932E+08	-2.31765016154E+01	-1.55023856405E+02	-1.10803412682E-01	-6.36428460898E+01	-1.14769404246E-01	-6.36290080674E+01	-2.33542147062E+01	-1.58257683499E+02
5.26784284841E+08	-2.31665892987E+01	-1.55017034068E+02	-1.11885243326E-01	-6.36822363928E+01	-1.15209983588E-01	-6.36706693101E+01	-2.33379002179E+01	-1.58297037048E+02
5.27046151862E+08	-2.31544587851E+01	-1.55053160326E+02	-1.10593168724E-01	-6.37152924818E+01	-1.12979611462E-01	-6.36959112949E+01	-2.33368007733E+01	-1.58294560931E+02
5.27308149058E+08	-2.31525045605E+01	-1.55078032435E+02	-1.10071312939E-01	-6.37466246436E+01	-1.15174682406E-01	-6.37303540295E+01	-2.33275027535E+01	-1.58399650057E+02
5.27570276494E+08	-2.31497936459E+01	-1.55099725495E+02	-1.11902835446E-01	-6.37743489351E+01	-1.13965834334E-01	-6.37666138103E+01	-2.33247774409E+01	-1.58415704137E+02
5.27832534235E+08	-2.31332771158E+01	-1.55168788681E+02	-1.11007720611E-01	-6.38088626516E+01	-1.14115847704E-01	-6.37963966735E+01	-2.33183346959E+01	-1.58478768630E+02
5.28094922345E+08	-2.31295102928E+01	-1.55127493925E+02	-1.10816829656E-01	-6.38391142453E+01	-1.15317952872E-01	-6.38222198791E+01	-2.33027192337E+01	-1.58465680197E+02
5.28357440890E+08	-2.31326951564E+01	-1.55196389051E+02	-1.10640327360E-01	-6.38685381521E+01	-1.15344373593E-01	-6.38602256105E+01	-2.32974147056E+01	-1.58463985574E+02
5.28620089934E+08	-2.31178657700E+01	-1.55211787839E+02	-1.11212519656E-01	-6.39036602524E+01	-1.15686884603E-01	-6.38898493398E+01	-2.32919663277E+01	-1.58577622526E+02
5.28882869543E+08	-2.31044832469E+01	-1.55229883979E+02	-1.09718543237E-01	-6.39272174088E+01	-1.15878300689E-01	-6.39236158328E+01	-2.32781597283E+01	-1.58573259920E+02
5.29145779780E+08	-2.31056988733E+01	-1.55305031566E+02	-1.11399882180E-01	-6.39633303177E+01	-1.14517068677E-01	-6.39516275592E+01	-2.32675906943E+01	-1.58671412228E+02
5.29408820711E+08	-2.30946128084E+01	-1.55330469154E+02	-1.10788669547E-01	-6.39912572628E+01	-1.15072189509E-01	-6.39803863325E+01	-2.32635147806E+01	-1.58676432410E+02
