# Hz S DB R 50
! CMT, C2409, 19096212, 19.2.3/2
! Date: 4/1/2022 3:39:34 AM
! Data: Format (Calibration Info)
! Freq	S11:dB/Ang(F2)	S21:dB/Ang(F2)	S12:dB/Ang(F2)	S22:dB/Ang(F2)
5.00000000000E+08	-3.28408847249E+01	+3.85853786520E+01	-7.64972499750E-02	-4.57124625703E+01	-7.08516065362E-02	-4.57174713005E+01	-3.30405736430E+01	+4.87257345286E+01
5.00248552423E+08	-3.28367641420E+01	+3.87470265906E+01	-7.67399517643E-02	-4.57433708303E+01	-7.00250868948E-02	-4.57343935768E+01	-3.30546161888E+01	+4.86691562708E+01
5.00497228402E+08	-3.28329287635E+01	+3.88252329254E+01	-7.60540500511E-02	-4.57487042503E+01	-7.08687521253E-02	-4.57550574949E+01	-3.30272294283E+01	+4.87125525808E+01
5.00746028000E+08	-3.28215744317E+01	+3.87828012574E+01	-7.61444488711E-02	-4.57783167929E+01	-6.96405102293E-02	-4.57805960078E+01	-3.30098458555E+01	+4.86866231342E+01
5.00994951277E+08	-3.28165428681E+01	+3.86636422727E+01	-7.54513452720E-02	-4.58116884466E+01	-6.99248443766E-02	-4.57947341777E+01	-3.30142322040E+01	+4.86782587760E+01
5.01243998295E+08	-3.28253903993E+01	+3.87332681281E+01	-7.56051073328E-02	-4.58317717475E+01	-7.02332372460E-02	-4.58293180512E+01	-3.29942168870E+01	+4.86250683584E+01
5.01493169115E+08	-3.28233618738E+01	+3.88970761881E+01	-7.56857126359E-02	-4.58530265616E+01	-7.09268084170E-02	-4.58400279240E+01	-3.29872647975E+01	+4.86299254879E+01
5.01742463799E+08	-3.28062438147E+01	+3.88319979105E+01	-7.47961301493E-02	-4.58741283935E+01	-7.08933245429E-02	-4.58658068475E+01	-3.29845203258E+01	+4.85571041475E+01
5.01991882409E+08	-3.28067494187E+01	+3.89168336898E+01	-7.40103886377E-02	-4.58930555403E+01	-6.97494592999E-02	-4.58892523221E+01	-3.29470246123E+01	+4.85780767201E+01
5.02241425007E+08	-3.28014119044E+01	+3.88997872508E+01	-7.64867669074E-02	-4.59219319843E+01	-7.08554665502E-02	-4.59127497867E+01	-3.29317114528E+01	+4.85455958847E+01
5.02491091653E+08	-3.27805454734E+01	+3.88820732768E+01	-7.61676517324E-02	-4.59416751660E+01	-7.05259105629E-02	-4.59477305392E+01	-3.29037638888E+01	+4.83552277076E+01
5.02740882409E+08	-3.27663277107E+01	+3.87787440298E+01	-7.59020491501E-02	-4.59580588734E+01	-7.07549762605E-02	-4.59568397657E+01	-3.29180772120E+01	+4.85098642093E+01
5.02990797338E+08	-3.27683234929E+01	+3.88871536781E+01	-7.63780495294E-02	-4.59837422461E+01	-7.09621745155E-02	-4.59841194413E+01	-3.29008750996E+01	+4.83531586811E+01
5.03240836501E+08	-3.27496986502E+01	+3.88885006535E+01	-7.56417612751E-02	-4.60126060058E+01	-7.16886454355E-02	-4.60032902267E+01	-3.28778813482E+01	+4.85004824910E+01
5.03490999959E+08	-3.27466113072E+01	+3.89592940790E+01	-7.51863847594E-02	-4.60289723870E+01	-7.04002405468E-02	-4.60271068648E+01	-3.28737943364E+01	+4.84544747289E+01
5.03741287775E+08	-3.27587329590E+01	+3.88927958462E+01	-7.55649949061E-02	-4.60603430525E+01	-7.14435698544E-02	-4.60500580879E+01	-3.28627142921E+01	+4.83429958670E+01
5.03991700010E+08	-3.27637643088E+01	+3.89385530807E+01	-7.68611542757E-02	-4.60742597995E+01	-7.15683357365E-02	-4.60714505418E+01	-3.28471750833E+01	+4.83215369819E+01
5.04242236726E+08	-3.27417197762E+01	+3.90036402259E+01	-7.70952325302E-02	-4.61026864741E+01	-6.99504984970E-02	-4.60872495201E+01	-3.28362053689E+01	+4.84063975066E+01
5.04492897985E+08	-3.27174451087E+01	+3.89667627039E+01	-7.60287713688E-02	-4.61263304727E+01	-7.15279189867E-02	-4.61128430528E+01	-3.28132710422E+01	+4.82985581946E+01
5.04743683850E+08	-3.27208673841E+01	+3.88887324829E+01	-7.63243218057E-02	-4.61443316697E+01	-7.09279619055E-02	-4.61353240751E+01	-3.27881038257E+01	+4.85223010786E+01
5.04994594381E+08	-3.27127506501E+01	+3.88682117033E+01	-7.54844650929E-02	-4.61675859948E+01	-7.16695718570E-02	-4.61636231554E+01	-3.27683556282E+01	+4.84520716047E+01
5.05245629641E+08	-3.26979314024E+01	+3.90038152243E+01	-7.77608476447E-02	-4.61880641359E+01	-7.19946232685E-02	-4.61895927814E+01	-3.27753940469E+01	+4.82090713504E+01
5.05496789691E+08	-3.26827182713E+01	+3.90403194948E+01	-7.54135800834E-02	-4.62130294782E+01	-7.19271612095E-02	-4.62087544320E+01	-3.27598391248E+01	+4.83511117142E+01
5.05748074595E+08	-3.26887719344E+01	+3.90706521789E+01	-7.62780913134E-02	-4.62422667976E+01	-7.22884846728E-02	-4.62416649289E+01	-3.27323963850E+01	+4.81092017080E+01
5.05999484413E+08	-3.26973474206E+01	+3.90615292096E+01	-7.74051634256E-02	-4.62640443945E+01	-7.11245308071E-02	-4.62477911997E+01	-3.27345307704E+01	+4.82943881074E+01
5.06251019209E+08	-3.26747427327E+01	+3.90381096648E+01	-7.66422986164E-02	-4.62841793873E+01	-7.21934449704E-02	-4.62758834986E+01	-3.27205467059E+01	+4.82679195537E+01
5.06502679044E+08	-3.26572648687E+01	+3.90700205044E+01	-7.62382561155E-02	-4.63012543023E+01	-7.10745010654E-02	-4.63055343401E+01	-3.27057674016E+01	+4.83093191516E+01
5.06754463980E+08	-3.26622708033E+01	+3.90735207313E+01	-7.75507157974E-02	-4.63234308918E+01	-7.18375546186E-02	-4.63185089035E+01	-3.27006821515E+01	+4.82115467928E+01
5.07006374079E+08	-3.26607128200E+01	+3.90326535129E+01	-7.74868541553E-02	-4.63458391975E+01	-7.12830399938E-02	-4.63508139984E+01	-3.26904912540E+01	+4.82538597967E+01
5.07258409405E+08	-3.26432560730E+01	+3.91695821383E+01	-7.67479322053E-02	-4.63737238270E+01	-7.18790828206E-02	-4.63594960773E+01	-3.26685621481E+01	+4.82750003708E+01
5.07510570018E+08	-3.26688815707E+01	+3.91714520882E+01	-7.72536528658E-02	-4.64024963050E+01	-7.10754512723E-02	-4.63887323210E+01	-3.26616373898E+01	+4.82137636617E+01
5.07762855982E+08	-3.26496926103E+01	+3.90982984245E+01	-7.63903306022E-02	-4.64220565112E+01	-7.24535071177E-02	-4.64162729494E+01	-3.26320349306E+01	+4.83179675685E+01
5.08015267358E+08	-3.26362689479E+01	+3.91028314989E+01	-7.83773135063E-02	-4.64415146078E+01	-7.21174279113E-02	-4.64313556419E+01	-3.26313741106E+01	+4.82126169908E+01
5.08267804209E+08	-3.26502399205E+01	+3.91286885222E+01	-7.76920515421E-02	-4.64664568370E+01	-7.11354260357E-02	-4.64674951290E+01	-3.25977138233E+01	+4.82076377873E+01
5.08520466597E+08	-3.26550707619E+01	+3.92536501711E+01	-7.79110564341E-02	-4.64887855254E+01	-7.07014969779E-02	-4.64832484392E+01	-3.26085253020E+01	+4.80182243623E+01
5.08773254585E+08	-3.26486579868E+01	+3.92614079270E+01	-7.77704296494E-02	-4.65101008697E+01	-7.12248316691E-02	-4.65042721131E+01	-3.25985744455E+01	+4.81834053559E+01
5.09026168235E+08	-3.26123774479E+01	+3.93230295237E+01	-7.69463251196E-02	-4.65273855974E+01	-7.19810721447E-02	-4.65280789903E+01	-3.25896651004E+01	+4.82129119776E+01
5.09279207610E+08	-3.26199147865E+01	+3.92403965113E+01	-7.69843107215E-02	-4.65611210711E+01	-7.19454553661E-02	-4.65563550475E+01	-3.25484385021E+01	+4.80699465996E+01
5.09532372772E+08	-3.26240858706E+01	+3.92667969994E+01	-7.89202458875E-02	-4.65904608192E+01	-7.07479433283E-02	-4.65739503099E+01	-3.25315159078E+01	+4.80210093877E+01
5.09785663784E+08	-3.26092016417E+01	+3.92872261912E+01	-7.80627638360E-02	-4.66061407376E+01	-7.27147636451E-02	-4.65968991642E+01	-3.25445825460E+01	+4.81666325833E+01
5.10039080707E+08	-3.26139020106E+01	+3.92682961186E+01	-7.69068326204E-02	-4.66310676363E+01	-7.26168398209E-02	-4.66241262597E+01	-3.25239558549E+01	+4.79288293465E+01
5.10292623606E+08	-3.26191834590E+01	+3.93551102864E+01	-7.69580743933E-02	-4.66551190364E+01	-7.23695818948E-02	-4.66490766132E+01	-3.25127953592E+01	+4.80327603992E+01
5.10546292542E+08	-3.26134703821E+01	+3.93288394255E+01	-7.88290256712E-02	-4.66673675457E+01	-7.22123155891E-02	-4.66706093010E+01	-3.25014869751E+01	+4.80970070429E+01
5.10800087578E+08	-3.26293437557E+01	+3.91880232612E+01	-7.89017448014E-02	-4.67003732310E+01	-7.15663235718E-02	-4.66951988317E+01	-3.24796541359E+01	+4.80797439710E+01
5.11054008776E+08	-3.25927300374E+01	+3.94067257281E+01	-7.92319960498E-02	-4.67234548544E+01	-7.26704867106E-02	-4.67131198962E+01	-3.24753109942E+01	+4.80776556783E+01
5.11308056201E+08	-3.25859143809E+01	+3.92828759021E+01	-7.64775718571E-02	-4.67383098793E+01	-7.28953536348E-02	-4.67440846158E+01	-3.24733899237E+01	+4.80057799024E+01
5.11562229913E+08	-3.25922887457E+01	+3.92346611870E+01	-7.80010982359E-02	-4.67669907485E+01	-7.27589373543E-02	-4.67623317052E+01	-3.24374166092E+01	+4.79028959643E+01
5.11816529976E+08	-3.26056791470E+01	+3.93862088846E+01	-7.73736255583E-02	-4.67894184944E+01	-7.23606767133E-02	-4.67776793322E+01	-3.24333260393E+01	+4.79716762029E+01
5.12070956453E+08	-3.25922280710E+01	+3.94196409708E+01	-7.82053830707E-02	-4.68140869640E+01	-7.30784797281E-02	-4.68067341267E+01	-3.24293167862E+01	+4.81545227539E+01
5.12325509407E+08	-3.25966831206E+01	+3.92983477763E+01	-7.81987986690E-02	-4.68317497098E+01	-7.13794499975E-02	-4.68315024470E+01	-3.24294248527E+01	+4.81321315604E+01
5.12580188900E+08	-3.25900498372E+01	+3.93082693619E+01	-7.91527920943E-02	-4.68649599874E+01	-7.23575978562E-02	-4.68509199421E+01	-3.24130080075E+01	+4.79861043379E+01
5.12834994996E+08	-3.25794758494E+01	+3.93609232745E+01	-7.76422134865E-02	-4.68739386488E+01	-7.17657897893E-02	-4.68752401069E+01	-3.24136878996E+01	+4.80540227610E+01
5.13089927757E+08	-3.25924188335E+01	+3.93448314400E+01	-7.74355416351E-02	-4.69121013776E+01	-7.19374398384E-02	-4.68932759625E+01	-3.24108827837E+01	+4.80646966343E+01
5.13344987246E+08	-3.25936369347E+01	+3.92459777554E+01	-7.69414798897E-02	-4.69282170909E+01	-7.37034553195E-02	-4.69203750083E+01	-3.23831356828E+01	+4.80462090567E+01
5.13600173527E+08	-3.25708683853E+01	+3.93185940812E+01	-7.80196860209E-02	-4.69545369377E+01	-7.30138597758E-02	-4.69522443038E+01	-3.23491877909E+01	+4.80018569528E+01
5.13855486662E+08	-3.25768323043E+01	+3.94124701567E+01	-7.81239911094E-02	-4.69841577595E+01	-7.23210365169E-02	-4.69693441945E+01	-3.23713151326E+01	+4.79617922187E+01
5.14110926714E+08	-3.25735992047E+01	+3.93398880922E+01	-7.85827758645E-02	-4.69956002552E+01	-7.14217243107E-02	-4.69850172178E+01	-3.23528233029E+01	+4.80553802624E+01
5.14366493747E+08	-3.25730723526E+01	+3.92551231428E+01	-7.81354988992E-02	-4.70199671844E+01	-7.36420063712E-02	-4.70134832608E+01	-3.23345718262E+01	+4.81241196109E+01
5.14622187824E+08	-3.25747306918E+01	+3.94242630918E+01	-7.69339486184E-02	-4.70484053039E+01	-7.21970382861E-02	-4.70391864229E+01	-3.23241451375E+01	+4.80153400990E+01
5.14878009007E+08	-3.26039721298E+01	+3.93219362416E+01	-7.93712466368E-02	-4.70697472593E+01	-7.18547910421E-02	-4.70622261671E+01	-3.23290562768E+01	+4.79106196877E+01
5.15133957360E+08	-3.25856597149E+01	+3.93156685652E+01	-7.92986686936E-02	-4.70869365067E+01	-7.35774604270E-02	-4.70854778070E+01	-3.23205759670E+01	+4.80019691074E+01
5.15390032947E+08	-3.25763942779E+01	+3.94177254932E+01	-7.81768979432E-02	-4.71206306914E+01	-7.29656187477E-02	-4.71074656177E+01	-3.23001414867E+01	+4.81290650117E+01
5.15646235829E+08	-3.25889874901E+01	+3.94345382365E+01	-7.82434571538E-02	-4.71397413013E+01	-7.20949320803E-02	-4.71355336499E+01	-3.22761236621E+01	+4.79500810298E+01
5.15902566072E+08	-3.25879674355E+01	+3.94101296572E+01	-7.92791251006E-02	-4.71598543818E+01	-7.18747261717E-02	-4.71560616154E+01	-3.22805592503E+01	+4.80304283517E+01
5.16159023737E+08	-3.25964431001E+01	+3.94616532168E+01	-7.86903622634E-02	-4.71775023249E+01	-7.35147687940E-02	-4.71901868515E+01	-3.22887192702E+01	+4.79814436603E+01
5.16415608889E+08	-3.25872740718E+01	+3.93857180114E+01	-7.72581880834E-02	-4.72038194025E+01	-7.15127759227E-02	-4.72077405596E+01	-3.22532274887E+01	+4.80960467195E+01
5.16672321591E+08	-3.25775686829E+01	+3.93905637456E+01	-7.93046983702E-02	-4.72285513327E+01	-7.27310720546E-02	-4.72284077976E+01	-3.22579861119E+01	+4.80109339528E+01
5.16929161905E+08	-3.25808188461E+01	+3.93120989735E+01	-7.95753268017E-02	-4.72571970288E+01	-7.24709341186E-02	-4.72415267043E+01	-3.22681372473E+01	+4.79216592167E+01
5.17186129897E+08	-3.25853072267E+01	+3.93735197543E+01	-7.82256263651E-02	-4.72768805917E+01	-7.31422270058E-02	-4.72741263387E+01	-3.22297860411E+01	+4.80291384796E+01
5.17443225628E+08	-3.25781418759E+01	+3.94125906637E+01	-7.85369895289E-02	-4.72955901565E+01	-7.31106407468E-02	-4.72950611512E+01	-3.22430137289E+01	+4.80666069265E+01
5.17700449163E+08	-3.25915396775E+01	+3.94843898475E+01	-7.84434895729E-02	-4.73237774540E+01	-7.29177325234E-02	-4.73235132674E+01	-3.22300471772E+01	+4.79741797089E+01
5.17957800564E+08	-3.26084325533E+01	+3.94591356587E+01	-7.88588539849E-02	-4.73513888323E+01	-7.34664342233E-02	-4.73336264513E+01	-3.22156585317E+01	+4.79753412376E+01
5.18215279897E+08	-3.25877515137E+01	+3.93264749110E+01	-7.82705322865E-02	-4.73669095196E+01	-7.32067438511E-02	-4.73688003670E+01	-3.22198294705E+01	+4.79553369969E+01
5.18472887224E+08	-3.26066621603E+01	+3.93706635288E+01	-7.88345129274E-02	-4.73954249246E+01	-7.33904819260E-02	-4.73810440611E+01	-3.22157454632E+01	+4.80423917670E+01
5.18730622608E+08	-3.26122373317E+01	+3.93573686420E+01	-7.90324974172E-02	-4.74183363669E+01	-7.38187175626E-02	-4.74108623599E+01	-3.22038573998E+01	+4.78027669682E+01
5.18988486114E+08	-3.26032513659E+01	+3.93679896640E+01	-7.86705342754E-02	-4.74380330816E+01	-7.22387477296E-02	-4.74332208323E+01	-3.21958461013E+01	+4.80045348589E+01
5.19246477806E+08	-3.26102648635E+01	+3.94423642356E+01	-7.96138468676E-02	-4.74626381280E+01	-7.34184760700E-02	-4.74593391015E+01	-3.22031384209E+01	+4.79774316031E+01
5.19504597746E+08	-3.26170137161E+01	+3.94212939560E+01	-7.94264467401E-02	-4.74858077115E+01	-7.46958217248E-02	-4.74806517014E+01	-3.22054378597E+01	+4.79792906022E+01
5.19762845999E+08	-3.26040690992E+01	+3.93824058315E+01	-7.90704589876E-02	-4.75096992280E+01	-7.33847598333E-02	-4.75093712490E+01	-3.21983202840E+01	+4.78605653138E+01
5.20021222628E+08	-3.26207416558E+01	+3.93615439565E+01	-7.90232395087E-02	-4.75352676700E+01	-7.23219496846E-02	-4.75278670001E+01	-3.21735679388E+01	+4.79897943852E+01
5.20279727698E+08	-3.26225521671E+01	+3.94106507598E+01	-7.87714329916E-02	-4.75559614270E+01	-7.32899314056E-02	-4.75525549720E+01	-3.22057278766E+01	+4.79243808085E+01
5.20538361271E+08	-3.26283871025E+01	+3.94945463043E+01	-7.89493585798E-02	-4.75806046436E+01	-7.24557107961E-02	-4.75792366093E+01	-3.21641175225E+01	+4.78958619492E+01
5.20797123413E+08	-3.26396472044E+01	+3.94249966617E+01	-7.89694065916E-02	-4.76048777636E+01	-7.27053088673E-02	-4.75989183969E+01	-3.21683730095E+01	+4.79528493379E+01
5.21056014187E+08	-3.26511146652E+01	+3.92651511493E+01	-8.01881907884E-02	-4.76275089666E+01	-7.33986467430E-02	-4.76314273948E+01	-3.21800565699E+01	+4.79068534011E+01
5.21315033656E+08	-3.26361263855E+01	+3.93825154651E+01	-7.99759217227E-02	-4.76442131685E+01	-7.30066358307E-02	-4.76530631874E+01	-3.21581297503E+01	+4.80467354819E+01
5.21574181886E+08	-3.26446779706E+01	+3.93263632916E+01	-7.83568637920E-02	-4.76784066812E+01	-7.39938295039E-02	-4.76581528862E+01	-3.21450231023E+01	+4.79679090749E+01
5.21833458939E+08	-3.26481620699E+01	+3.93660397162E+01	-7.90864200986E-02	-4.76935859967E+01	-7.30900862048E-02	-4.76959090765E+01	-3.21757143855E+01	+4.79205292434E+01
5.22092864880E+08	-3.26433590830E+01	+3.92556301984E+01	-7.95838915003E-02	-4.77222770129E+01	-7.28096890697E-02	-4.77182763781E+01	-3.21704038938E+01	+4.80415740823E+01
5.22352399773E+08	-3.26530238438E+01	+3.93867545530E+01	-7.95347524626E-02	-4.77506894229E+01	-7.35481100061E-02	-4.77451054115E+01	-3.21707887480E+01	+4.80128562024E+01
5.22612063682E+08	-3.26593179011E+01	+3.92053152504E+01	-7.93121333178E-02	-4.77681268059E+01	-7.35676913872E-02	-4.77620726549E+01	-3.21502818109E+01	+4.80459076715E+01
5.22871856671E+08	-3.26539362593E+01	+3.92286221314E+01	-8.12610728870E-02	-4.77954991368E+01	-7.44693001639E-02	-4.77873956026E+01	-3.21529863556E+01	+4.80004107058E+01
5.23131778805E+08	-3.26554771022E+01	+3.94383707355E+01	-7.90131092678E-02	-4.78182093317E+01	-7.47226196065E-02	-4.78133996688E+01	-3.21393155697E+01	+4.80097834749E+01
5.23391830147E+08	-3.26871017484E+01	+3.92931530178E+01	-7.83346336822E-02	-4.78420046901E+01	-7.39834571275E-02	-4.78402853909E+01	-3.21459968505E+01	+4.80030856817E+01
5.23652010762E+08	-3.26794201345E+01	+3.93563866189E+01	-7.85535344888E-02	-4.78643615160E+01	-7.39053903184E-02	-4.78657901901E+01	-3.21537189348E+01	+4.80832927773E+01
5.23912320714E+08	-3.26874809909E+01	+3.93254937528E+01	-7.98175856418E-02	-4.78850799590E+01	-7.35700341304E-02	-4.78837385847E+01	-3.21523844481E+01	+4.80320439543E+01
5.24172760067E+08	-3.26795031232E+01	+3.92167052324E+01	-7.95993641029E-02	-4.79176633838E+01	-7.41911267336E-02	-4.79087992115E+01	-3.21312183092E+01	+4.81101359692E+01
5.24433328886E+08	-3.26796230680E+01	+3.93063636589E+01	-7.98708387323E-02	-4.79333637607E+01	-7.33603873874E-02	-4.79302113425E+01	-3.21313377500E+01	+4.81049316784E+01
5.24694027235E+08	-3.26970698981E+01	+3.91187275752E+01	-7.93539039607E-02	-4.79560969419E+01	-7.37133360860E-02	-4.79588064780E+01	-3.21426143162E+01	+4.81771987249E+01
5.24954855178E+08	-3.27235640439E+01	+3.91843878439E+01	-7.88172512833E-02	-4.79809561967E+01	-7.36887066843E-02	-4.79839476985E+01	-3.21421077767E+01	+4.81137217236E+01
5.25215812781E+08	-3.27233480552E+01	+3.91479501535E+01	-7.98188169314E-02	-4.80032459897E+01	-7.54312586339E-02	-4.79998676348E+01	-3.21424220133E+01	+4.81414886998E+01
5.25476900106E+08	-3.27156809122E+01	+3.92210468133E+01	-7.95453881246E-02	-4.80360343701E+01	-7.45306847402E-02	-4.80245172354E+01	-3.21512378481E+01	+4.80143604470E+01
5.25738117220E+08	-3.27345119785E+01	+3.91770175479E+01	-7.84982752442E-02	-4.80585769075E+01	-7.39453184027E-02	-4.80538786378E+01	-3.21370062646E+01	+4.80882723621E+01
5.25999464185E+08	-3.27226664935E+01	+3.90426994060E+01	-7.87097059446E-02	-4.80798736959E+01	-7.42134091136E-02	-4.80788646914E+01	-3.21504278323E+01	+4.81363802960E+01
5.26260941068E+08	-3.27247289410E+01	+3.91028468703E+01	-7.94310340076E-02	-4.81010459932E+01	-7.34842657223E-02	-4.80913094252E+01	-3.21502701422E+01	+4.81822087824E+01
5.26522547932E+08	-3.27238579916E+01	+3.92422309585E+01	-8.04544935158E-02	-4.81214591615E+01	-7.47119264615E-02	-4.81204448939E+01	-3.21361231331E+01	+4.81339244590E+01
5.26784284841E+08	-3.27430126843E+01	+3.90943880764E+01	-8.05536201989E-02	-4.81492096074E+01	-7.44556379506E-02	-4.81535748910E+01	-3.21460458298E+01	+4.80316232260E+01
5.27046151862E+08	-3.27747278301E+01	+3.90994379511E+01	-7.91437779184E-02	-4.81748765413E+01	-7.44741567654E-02	-4.81741072566E+01	-3.21565518882E+01	+4.80419067547E+01
5.27308149058E+08	-3.27441684126E+01	+3.89582872084E+01	-7.98066163483E-02	-4.82021670048E+01	-7.50676889638E-02	-4.82030778859E+01	-3.21572938916E+01	+4.82272496060E+01
5.27570276494E+08	-3.27624884427E+01	+3.90229408420E+01	-8.03445717184E-02	-4.82246906443E+01	-7.55335672127E-02	-4.82214879117E+01	-3.21424296517E+01	+4.81631593827E+01
5.27832534235E+08	-3.27973586332E+01	+3.89574480290E+01	-7.99670869019E-02	-4.82410947215E+01	-7.43429719072E-02	-4.82496743718E+01	-3.21440942556E+01	+4.82235652891E+01
5.28094922345E+08	-3.27825707960E+01	+3.88813716569E+01	-8.05709888816E-02	-4.82670550428E+01	-7.48395429710E-02	-4.82669967273E+01	-3.21648023067E+01	+4.80772616088E+01
5.28357440890E+08	-3.27699114706E+01	+3.89825015064E+01	-7.95204128216E-02	-4.82876215362E+01	-7.43059294950E-02	-4.82905533266E+01	-3.21608316546E+01	+4.79911339679E+01
5.28620089934E+08	-3.27980512731E+01	+3.89047645304E+01	-8.02743101543E-02	-4.83173595000E+01	-7.61443023456E-02	-4.83160957979E+01	-3.21616083207E+01	+4.81306115033E+01
5.28882869543E+08	-3.28095707819E+01	+3.88188655323E+01	-7.96786930555E-02	-4.83399716458E+01	-7.55126668269E-02	-4.83387361616E+01	-3.21821007972E+01	+4.81805027742E+01
5.29145779780E+08	-3.28025338940E+01	+3.89696813112E+01	-7.95902636142E-02	-4.83655595632E+01	-7.46877103272E-02	-4.83609529901E+01	-3.21757544619E+01	+4.82389554319E+01
5.29408820711E+08	-3.28058756378E+01	+3.88984670751E+01	-8.04339823997E-02	-4.83784827775E+01	-7.56163406717E-02	-4.83863550925E+01	-3.21817483512E+01	+4.82592750634E+01
