# Hz S DB R 50
! CMT, C2409, 19096212, 19.2.3/2
! Date: 4/1/2022 3:25:09 AM
! Data: Format (Calibration Info)
! Freq	S11:dB/Ang(F2)	S21:dB/Ang(F2)	S12:dB/Ang(F2)	S22:dB/Ang(F2)
5.00000000000E+08	-6.79809690457E-02	-4.50119545371E+01	-7.52982955792E+01	-1.39943485042E+02	-7.53423663195E+01	-1.40440961269E+02	-7.94644693766E-02	-4.59534657536E+01
5.00248552423E+08	-7.01818116910E-02	-4.50369655396E+01	-7.54318738012E+01	-1.42199794412E+02	-7.57928559530E+01	-1.43202392408E+02	-7.79456070344E-02	-4.59871476414E+01
5.00497228402E+08	-7.02665543384E-02	-4.50577009913E+01	-7.54777962734E+01	-1.42314317198E+02	-7.56342177811E+01	-1.40462485276E+02	-7.60076969058E-02	-4.60104029351E+01
5.00746028000E+08	-7.01718393799E-02	-4.50754081242E+01	-7.55398989717E+01	-1.41526695428E+02	-7.54377012390E+01	-1.45115778473E+02	-7.55936070292E-02	-4.60321463608E+01
5.00994951277E+08	-6.92145047179E-02	-4.51049179872E+01	-7.53519324264E+01	-1.41344449699E+02	-7.56466404112E+01	-1.41911056785E+02	-7.48517301709E-02	-4.60545524133E+01
5.01243998295E+08	-6.94736353216E-02	-4.51232804926E+01	-7.53784435029E+01	-1.41728963907E+02	-7.54532606693E+01	-1.42977794677E+02	-7.62490811667E-02	-4.60809367307E+01
5.01493169115E+08	-7.10856207794E-02	-4.51455154216E+01	-7.54688111652E+01	-1.40652627553E+02	-7.56283547351E+01	-1.41573632497E+02	-7.69667522532E-02	-4.61095310166E+01
5.01742463799E+08	-6.90662817040E-02	-4.51607318168E+01	-7.53390181188E+01	-1.41694470864E+02	-7.52509078615E+01	-1.42472312795E+02	-7.59553140349E-02	-4.61301085711E+01
5.01991882409E+08	-7.16256080422E-02	-4.51832307766E+01	-7.50448927234E+01	-1.41483764476E+02	-7.53781240254E+01	-1.41719044505E+02	-7.44497420359E-02	-4.61524674440E+01
5.02241425007E+08	-7.07385119947E-02	-4.51957597089E+01	-7.55409509368E+01	-1.43034601980E+02	-7.53168040240E+01	-1.46253723579E+02	-7.56754155206E-02	-4.61696037545E+01
5.02491091653E+08	-7.01397093040E-02	-4.52323066303E+01	-7.53414754367E+01	-1.42189276894E+02	-7.50472097172E+01	-1.42987321190E+02	-7.57373292965E-02	-4.61932613374E+01
5.02740882409E+08	-7.04158567285E-02	-4.52438512794E+01	-7.52368207277E+01	-1.41776500887E+02	-7.54712018464E+01	-1.41659609247E+02	-7.49224895266E-02	-4.62076757651E+01
5.02990797338E+08	-6.96485189708E-02	-4.52656430660E+01	-7.50197128702E+01	-1.44694465271E+02	-7.54930097567E+01	-1.43339188944E+02	-7.71478585344E-02	-4.62377767675E+01
5.03240836501E+08	-6.96395406777E-02	-4.52942962513E+01	-7.50376395094E+01	-1.45682725777E+02	-7.52247249247E+01	-1.43475681419E+02	-7.59798068844E-02	-4.62616708441E+01
5.03490999959E+08	-7.09267608618E-02	-4.53189171776E+01	-7.52386012300E+01	-1.40157327226E+02	-7.51191393673E+01	-1.42137173450E+02	-7.49306999066E-02	-4.62856716291E+01
5.03741287775E+08	-6.98508597089E-02	-4.53351462695E+01	-7.53778282396E+01	-1.42176318465E+02	-7.54532809782E+01	-1.41795322309E+02	-7.54427535796E-02	-4.63111039428E+01
5.03991700010E+08	-7.08120914632E-02	-4.53698941865E+01	-7.56524769727E+01	-1.44045927381E+02	-7.52646508172E+01	-1.44608530817E+02	-7.62269588504E-02	-4.63364036770E+01
5.04242236726E+08	-7.02507582000E-02	-4.53780920125E+01	-7.49590639005E+01	-1.41097813039E+02	-7.53334667128E+01	-1.43239101025E+02	-7.58007670646E-02	-4.63571586121E+01
5.04492897985E+08	-7.03636525298E-02	-4.54069033980E+01	-7.53057071425E+01	-1.42093091422E+02	-7.52381396762E+01	-1.42084826145E+02	-7.49230396462E-02	-4.63858800088E+01
5.04743683850E+08	-7.07840518359E-02	-4.54275072268E+01	-7.53382768005E+01	-1.43061088240E+02	-7.47352623995E+01	-1.42108277717E+02	-7.57337832424E-02	-4.63968738256E+01
5.04994594381E+08	-7.17792052266E-02	-4.54512227147E+01	-7.53707823415E+01	-1.45056617563E+02	-7.49475104442E+01	-1.42499851931E+02	-7.66248216376E-02	-4.64199351561E+01
5.05245629641E+08	-7.01260077168E-02	-4.54778525135E+01	-7.52617709822E+01	-1.41766867294E+02	-7.54496291860E+01	-1.43313002533E+02	-7.40240171803E-02	-4.64385851319E+01
5.05496789691E+08	-7.09715836645E-02	-4.54902652032E+01	-7.53919466953E+01	-1.42532088512E+02	-7.54414288275E+01	-1.44246557520E+02	-7.69608824879E-02	-4.64664704555E+01
5.05748074595E+08	-6.96490180928E-02	-4.55169697246E+01	-7.48556295004E+01	-1.44279881718E+02	-7.53351032500E+01	-1.41756950162E+02	-7.61852298816E-02	-4.64910341705E+01
5.05999484413E+08	-7.04403937751E-02	-4.55357231728E+01	-7.49870611563E+01	-1.45576738250E+02	-7.50148615812E+01	-1.41853477386E+02	-7.78178763586E-02	-4.65158064851E+01
5.06251019209E+08	-7.14408269986E-02	-4.55641100445E+01	-7.48146077159E+01	-1.45318245835E+02	-7.49162936090E+01	-1.39911613814E+02	-7.60377138217E-02	-4.65344269261E+01
5.06502679044E+08	-7.15507727441E-02	-4.55828675998E+01	-7.47528654131E+01	-1.42355140154E+02	-7.50050818364E+01	-1.43287191722E+02	-7.64485545188E-02	-4.65587362721E+01
5.06754463980E+08	-7.06995207934E-02	-4.56126276829E+01	-7.48032277909E+01	-1.44023575932E+02	-7.50466795110E+01	-1.43644853875E+02	-7.57117614925E-02	-4.65765763026E+01
5.07006374079E+08	-7.05347901880E-02	-4.56383613575E+01	-7.52149291437E+01	-1.45964135522E+02	-7.44580227775E+01	-1.43374105234E+02	-7.62916439311E-02	-4.66142551861E+01
5.07258409405E+08	-7.15143861399E-02	-4.56461498181E+01	-7.49780871519E+01	-1.41178898248E+02	-7.50812726855E+01	-1.43723844447E+02	-7.85959390505E-02	-4.66225155801E+01
5.07510570018E+08	-7.20190938651E-02	-4.56708382332E+01	-7.48385514303E+01	-1.42094049947E+02	-7.51709000560E+01	-1.42826805862E+02	-7.57515373478E-02	-4.66618678519E+01
5.07762855982E+08	-7.15124814816E-02	-4.56939857242E+01	-7.50233383014E+01	-1.40981726070E+02	-7.52110659996E+01	-1.41048637424E+02	-7.65581350493E-02	-4.66766661984E+01
5.08015267358E+08	-7.26423303522E-02	-4.57212846580E+01	-7.51272972486E+01	-1.42256303859E+02	-7.50516428517E+01	-1.42266968562E+02	-7.69940085319E-02	-4.66919652635E+01
5.08267804209E+08	-7.11950541053E-02	-4.57386013249E+01	-7.50475707405E+01	-1.44426335119E+02	-7.47682066173E+01	-1.41690140326E+02	-7.72461958464E-02	-4.67168197114E+01
5.08520466597E+08	-7.18894852167E-02	-4.57654406796E+01	-7.47724020031E+01	-1.43464656062E+02	-7.48259193925E+01	-1.43843914036E+02	-7.70589613790E-02	-4.67418287517E+01
5.08773254585E+08	-7.11633565640E-02	-4.57881843423E+01	-7.51247150936E+01	-1.41739341726E+02	-7.47997295543E+01	-1.42604705742E+02	-7.61942198934E-02	-4.67652865727E+01
5.09026168235E+08	-7.13634716288E-02	-4.58105100468E+01	-7.47827050106E+01	-1.44276391082E+02	-7.47471814065E+01	-1.45464348971E+02	-7.73201129511E-02	-4.67866549959E+01
5.09279207610E+08	-7.16183745776E-02	-4.58316484637E+01	-7.49722306842E+01	-1.44138081654E+02	-7.46861822199E+01	-1.43613810846E+02	-7.67776710620E-02	-4.68266028172E+01
5.09532372772E+08	-7.14070480189E-02	-4.58584276072E+01	-7.47572510016E+01	-1.42950583254E+02	-7.45762421756E+01	-1.41479246436E+02	-7.75598765553E-02	-4.68310677309E+01
5.09785663784E+08	-7.15881318959E-02	-4.58837410572E+01	-7.47890746088E+01	-1.42791139928E+02	-7.53606197797E+01	-1.41743764573E+02	-7.68221127342E-02	-4.68584627485E+01
5.10039080707E+08	-7.34810362774E-02	-4.59026729774E+01	-7.48788687770E+01	-1.44773539269E+02	-7.45395509971E+01	-1.43839189947E+02	-7.69455287742E-02	-4.68823401506E+01
5.10292623606E+08	-7.30524900167E-02	-4.59327554795E+01	-7.47404434341E+01	-1.43524258155E+02	-7.48097568405E+01	-1.43762782048E+02	-7.78658952696E-02	-4.69005761821E+01
5.10546292542E+08	-7.11679401787E-02	-4.59552668749E+01	-7.45833641250E+01	-1.42594173287E+02	-7.47958776895E+01	-1.41864879090E+02	-7.81038196189E-02	-4.69321675845E+01
5.10800087578E+08	-7.34020110193E-02	-4.59743804283E+01	-7.46273122857E+01	-1.40707314393E+02	-7.46811416891E+01	-1.44502937688E+02	-7.89807541144E-02	-4.69597035768E+01
5.11054008776E+08	-7.23432852874E-02	-4.59928861868E+01	-7.46762284517E+01	-1.44197493207E+02	-7.47404619768E+01	-1.44432948656E+02	-7.82053676635E-02	-4.69746694884E+01
5.11308056201E+08	-7.28766593076E-02	-4.60134032583E+01	-7.47564368950E+01	-1.43529334206E+02	-7.45432314598E+01	-1.42256811596E+02	-7.79459934587E-02	-4.69938727673E+01
5.11562229913E+08	-7.27183169224E-02	-4.60429558037E+01	-7.49426046341E+01	-1.44113483713E+02	-7.46510903924E+01	-1.44827149556E+02	-7.75777969237E-02	-4.70251091479E+01
5.11816529976E+08	-7.15920455353E-02	-4.60587911546E+01	-7.46453499772E+01	-1.43750053038E+02	-7.48074214211E+01	-1.44992499553E+02	-7.83732106577E-02	-4.70433047110E+01
5.12070956453E+08	-7.38046505054E-02	-4.60806875538E+01	-7.46435913549E+01	-1.45019442030E+02	-7.44005876478E+01	-1.43226211072E+02	-7.90528138544E-02	-4.70742259943E+01
5.12325509407E+08	-7.31810729222E-02	-4.61002028688E+01	-7.44810619024E+01	-1.43839896743E+02	-7.49804119325E+01	-1.41921727587E+02	-7.83386923412E-02	-4.70772147573E+01
5.12580188900E+08	-7.37418135453E-02	-4.61312042437E+01	-7.50506021725E+01	-1.41810087081E+02	-7.45007766554E+01	-1.45439292667E+02	-7.78590557084E-02	-4.71160058377E+01
5.12834994996E+08	-7.24102481468E-02	-4.61499257245E+01	-7.46543913985E+01	-1.40871092838E+02	-7.46659873232E+01	-1.45364512684E+02	-8.02426307351E-02	-4.71386213499E+01
5.13089927757E+08	-7.32596441124E-02	-4.61821865179E+01	-7.45060838629E+01	-1.43611259907E+02	-7.43579122318E+01	-1.42703019321E+02	-7.86244295359E-02	-4.71550566782E+01
5.13344987246E+08	-7.29278661510E-02	-4.62043208216E+01	-7.46400598150E+01	-1.42857620750E+02	-7.46286252180E+01	-1.46120989758E+02	-7.92938081928E-02	-4.71871602198E+01
5.13600173527E+08	-7.30710053101E-02	-4.62303774962E+01	-7.43845866369E+01	-1.41120415391E+02	-7.46974777712E+01	-1.42820353894E+02	-8.08407894216E-02	-4.72050380381E+01
5.13855486662E+08	-7.40633977034E-02	-4.62506564260E+01	-7.46461837261E+01	-1.45402478403E+02	-7.44936076193E+01	-1.43984992704E+02	-7.89422585999E-02	-4.72366802948E+01
5.14110926714E+08	-7.36892036908E-02	-4.62753645833E+01	-7.47078600268E+01	-1.42674950631E+02	-7.43776881987E+01	-1.41873413181E+02	-7.88957244358E-02	-4.72525017076E+01
5.14366493747E+08	-7.41253990342E-02	-4.62915725940E+01	-7.46029899574E+01	-1.41914032785E+02	-7.45804308806E+01	-1.46026623894E+02	-7.91331709671E-02	-4.72747446615E+01
5.14622187824E+08	-7.47560934102E-02	-4.63157260859E+01	-7.46154713864E+01	-1.44280196690E+02	-7.42853536412E+01	-1.46092728568E+02	-8.00297354007E-02	-4.72974317139E+01
5.14878009007E+08	-7.49372195967E-02	-4.63371133692E+01	-7.47630227343E+01	-1.43493271106E+02	-7.43190737153E+01	-1.43299477305E+02	-7.89310970950E-02	-4.73320084146E+01
5.15133957360E+08	-7.45069409231E-02	-4.63747460927E+01	-7.43946667326E+01	-1.45316014391E+02	-7.43472718503E+01	-1.45689586046E+02	-7.83567025574E-02	-4.73389373005E+01
5.15390032947E+08	-7.36617539535E-02	-4.63924727097E+01	-7.40507166539E+01	-1.43342711395E+02	-7.44186196127E+01	-1.41826146180E+02	-8.03679377533E-02	-4.73545110125E+01
5.15646235829E+08	-7.33978609580E-02	-4.64112451089E+01	-7.40484275184E+01	-1.44527968569E+02	-7.43486812602E+01	-1.44577317177E+02	-8.05099064125E-02	-4.73878596419E+01
5.15902566072E+08	-7.36459225946E-02	-4.64393023531E+01	-7.42493560589E+01	-1.44718983178E+02	-7.43309314883E+01	-1.41538329034E+02	-8.01570295407E-02	-4.74133793858E+01
5.16159023737E+08	-7.44438359967E-02	-4.64634724934E+01	-7.42247408699E+01	-1.43937135519E+02	-7.43737489974E+01	-1.41932090108E+02	-8.03006830148E-02	-4.74403513486E+01
5.16415608889E+08	-7.41178122540E-02	-4.64818674346E+01	-7.42230135756E+01	-1.43057467789E+02	-7.42001075052E+01	-1.43570914576E+02	-8.08206001023E-02	-4.74554471140E+01
5.16672321591E+08	-7.33660258249E-02	-4.65003758201E+01	-7.42779169739E+01	-1.46739971310E+02	-7.43955723968E+01	-1.43274298782E+02	-8.09140929423E-02	-4.74872566587E+01
5.16929161905E+08	-7.43970142592E-02	-4.65307541697E+01	-7.45292159945E+01	-1.43872899392E+02	-7.40581088099E+01	-1.44298124897E+02	-8.00357506164E-02	-4.75073226789E+01
5.17186129897E+08	-7.52738382605E-02	-4.65606097949E+01	-7.41275243229E+01	-1.43878993215E+02	-7.43969258438E+01	-1.47750898186E+02	-8.12652373634E-02	-4.75284575185E+01
5.17443225628E+08	-7.36511403062E-02	-4.65895350693E+01	-7.40446600668E+01	-1.44239142712E+02	-7.41606149130E+01	-1.43313382955E+02	-8.09632241648E-02	-4.75581158223E+01
5.17700449163E+08	-7.55723271850E-02	-4.66057936269E+01	-7.41473801262E+01	-1.44287677963E+02	-7.42469967311E+01	-1.44881250889E+02	-8.08570862597E-02	-4.75779721602E+01
5.17957800564E+08	-7.50688931468E-02	-4.66300293363E+01	-7.42602414980E+01	-1.43528602535E+02	-7.41392095726E+01	-1.44040085142E+02	-8.32152273958E-02	-4.76061635823E+01
5.18215279897E+08	-7.33085366171E-02	-4.66504852666E+01	-7.41075638583E+01	-1.43929813541E+02	-7.43060034907E+01	-1.42444217165E+02	-8.23744507080E-02	-4.76257582276E+01
5.18472887224E+08	-7.49567657342E-02	-4.66723320954E+01	-7.41423262156E+01	-1.44952764637E+02	-7.41179048267E+01	-1.43072154400E+02	-8.08707946543E-02	-4.76465528073E+01
5.18730622608E+08	-7.52354245401E-02	-4.67046800177E+01	-7.41666614429E+01	-1.41015067961E+02	-7.37770573840E+01	-1.43148158690E+02	-8.30653092534E-02	-4.76726435126E+01
5.18988486114E+08	-7.53211231116E-02	-4.67327982633E+01	-7.40935658596E+01	-1.44445239892E+02	-7.39898829625E+01	-1.43957716910E+02	-8.20189970935E-02	-4.76947459984E+01
5.19246477806E+08	-7.42530759523E-02	-4.67443385913E+01	-7.40742374886E+01	-1.45165195617E+02	-7.40180293760E+01	-1.43530981705E+02	-8.07870117443E-02	-4.77225841561E+01
5.19504597746E+08	-7.42837945589E-02	-4.67754004718E+01	-7.40772521297E+01	-1.43162887507E+02	-7.38833854132E+01	-1.45635081960E+02	-8.18875730351E-02	-4.77449722143E+01
5.19762845999E+08	-7.42463438637E-02	-4.67961991246E+01	-7.39099327218E+01	-1.42854777904E+02	-7.41931359937E+01	-1.46208471351E+02	-8.14258230606E-02	-4.77631597221E+01
5.20021222628E+08	-7.61482679552E-02	-4.68176504921E+01	-7.38653729911E+01	-1.42579930316E+02	-7.41445007977E+01	-1.43246413428E+02	-8.07253520292E-02	-4.77970411641E+01
5.20279727698E+08	-7.56975333509E-02	-4.68472430841E+01	-7.41880545933E+01	-1.44184595725E+02	-7.43134610145E+01	-1.45071261223E+02	-8.11091472428E-02	-4.78147646358E+01
5.20538361271E+08	-7.72754910746E-02	-4.68743059861E+01	-7.41414016408E+01	-1.42980070956E+02	-7.37759599956E+01	-1.43270611634E+02	-8.27535921146E-02	-4.78423118602E+01
5.20797123413E+08	-7.57145562054E-02	-4.68917930781E+01	-7.41871211939E+01	-1.44514983138E+02	-7.42440351541E+01	-1.42668191035E+02	-8.30266386426E-02	-4.78632322615E+01
5.21056014187E+08	-7.59614276912E-02	-4.69226295226E+01	-7.37196409313E+01	-1.43152755158E+02	-7.38644799812E+01	-1.44103761463E+02	-8.30581628282E-02	-4.78842620396E+01
5.21315033656E+08	-7.60964140016E-02	-4.69461791018E+01	-7.37614530232E+01	-1.45379726452E+02	-7.42315019957E+01	-1.41546778068E+02	-8.33598121258E-02	-4.79086695504E+01
5.21574181886E+08	-7.68366097591E-02	-4.69614191933E+01	-7.39118156802E+01	-1.44167800703E+02	-7.35354571880E+01	-1.44449953442E+02	-8.47940258047E-02	-4.79367457697E+01
5.21833458939E+08	-7.52468928158E-02	-4.69921630950E+01	-7.40227811281E+01	-1.46506464270E+02	-7.39885885891E+01	-1.44204275406E+02	-8.33063171115E-02	-4.79591061679E+01
5.22092864880E+08	-7.58092243637E-02	-4.70065399794E+01	-7.41552312758E+01	-1.44052065518E+02	-7.38396538247E+01	-1.42755603467E+02	-8.24464083389E-02	-4.79849975871E+01
5.22352399773E+08	-7.73335587385E-02	-4.70426898001E+01	-7.35254610364E+01	-1.43909531246E+02	-7.38443525740E+01	-1.42262869810E+02	-8.39333162640E-02	-4.80109129865E+01
5.22612063682E+08	-7.68067383494E-02	-4.70647727238E+01	-7.35569596704E+01	-1.42336455439E+02	-7.42566109985E+01	-1.42671522413E+02	-8.34632420692E-02	-4.80309550708E+01
5.22871856671E+08	-7.56098557367E-02	-4.70899374453E+01	-7.37175774798E+01	-1.43560320323E+02	-7.40582668100E+01	-1.44852403401E+02	-8.29819449321E-02	-4.80598460953E+01
5.23131778805E+08	-7.63885943599E-02	-4.71069936575E+01	-7.37415619433E+01	-1.44541653027E+02	-7.40368609670E+01	-1.41978019127E+02	-8.26607598810E-02	-4.80844761732E+01
5.23391830147E+08	-7.60843042596E-02	-4.71369336454E+01	-7.38938355462E+01	-1.43753793240E+02	-7.36873578535E+01	-1.43715505530E+02	-8.40590518945E-02	-4.80975946982E+01
5.23652010762E+08	-7.60225719575E-02	-4.71561941888E+01	-7.37506782327E+01	-1.45181349700E+02	-7.34570200813E+01	-1.43928064444E+02	-8.37809337693E-02	-4.81272270690E+01
5.23912320714E+08	-7.71932357468E-02	-4.71868414337E+01	-7.36781233599E+01	-1.45006904359E+02	-7.38462725529E+01	-1.41963468221E+02	-8.28018143640E-02	-4.81473388457E+01
5.24172760067E+08	-7.61011437542E-02	-4.72030061184E+01	-7.37644851541E+01	-1.44211168928E+02	-7.36235054440E+01	-1.43316737374E+02	-8.52442863981E-02	-4.81713260381E+01
5.24433328886E+08	-7.74260190822E-02	-4.72267014023E+01	-7.35907573914E+01	-1.43769411969E+02	-7.39734084025E+01	-1.45506183376E+02	-8.35609085840E-02	-4.81920056702E+01
5.24694027235E+08	-7.63301473711E-02	-4.72671734423E+01	-7.37427929176E+01	-1.45053115130E+02	-7.36027637639E+01	-1.47533560974E+02	-8.36103488762E-02	-4.82282974791E+01
5.24954855178E+08	-7.73815926101E-02	-4.72871041341E+01	-7.35184048325E+01	-1.45848216014E+02	-7.36013675741E+01	-1.44275342949E+02	-8.43362319825E-02	-4.82417340431E+01
5.25215812781E+08	-7.80310408872E-02	-4.73131087233E+01	-7.38747282328E+01	-1.44056980371E+02	-7.35985734354E+01	-1.43685962976E+02	-8.41927037174E-02	-4.82675672524E+01
5.25476900106E+08	-7.76744778280E-02	-4.73309238464E+01	-7.37017424274E+01	-1.44367546445E+02	-7.38600549240E+01	-1.44050475629E+02	-8.47652367626E-02	-4.82901650734E+01
5.25738117220E+08	-7.80701292217E-02	-4.73556877656E+01	-7.34238645780E+01	-1.44103135332E+02	-7.32439311989E+01	-1.45714874399E+02	-8.56464041416E-02	-4.83160277079E+01
5.25999464185E+08	-7.70211229914E-02	-4.73772024428E+01	-7.35059854785E+01	-1.45967530712E+02	-7.35252340162E+01	-1.46097411875E+02	-8.47479259325E-02	-4.83372192766E+01
5.26260941068E+08	-7.83145368678E-02	-4.73962824047E+01	-7.37505851780E+01	-1.44340626709E+02	-7.35722523094E+01	-1.44925028316E+02	-8.46363511386E-02	-4.83726680424E+01
5.26522547932E+08	-7.80894726024E-02	-4.74367522103E+01	-7.33235736200E+01	-1.45053486858E+02	-7.32245114904E+01	-1.44290263180E+02	-8.57694111842E-02	-4.83875836619E+01
5.26784284841E+08	-7.84636177003E-02	-4.74649276450E+01	-7.34889617465E+01	-1.44301155310E+02	-7.33542786132E+01	-1.45408277702E+02	-8.45547305344E-02	-4.84153801802E+01
5.27046151862E+08	-7.74281422215E-02	-4.74829412852E+01	-7.34217058592E+01	-1.44853601783E+02	-7.35243360632E+01	-1.44083827549E+02	-8.43565808039E-02	-4.84356373403E+01
5.27308149058E+08	-7.68614402760E-02	-4.75011936707E+01	-7.32385106008E+01	-1.45340209214E+02	-7.36323427170E+01	-1.43719589598E+02	-8.53616905712E-02	-4.84687856106E+01
5.27570276494E+08	-7.77679759888E-02	-4.75276419850E+01	-7.32999311235E+01	-1.44498249029E+02	-7.36743062377E+01	-1.44482094901E+02	-8.55576336005E-02	-4.84970819107E+01
5.27832534235E+08	-7.78260681957E-02	-4.75601250034E+01	-7.32367552545E+01	-1.44899641411E+02	-7.34432789976E+01	-1.46896455938E+02	-8.62638930486E-02	-4.85114384962E+01
5.28094922345E+08	-7.80674596105E-02	-4.75774427584E+01	-7.34410270651E+01	-1.43580161222E+02	-7.35447013937E+01	-1.44654741577E+02	-8.54356879319E-02	-4.85403251155E+01
5.28357440890E+08	-7.83704955874E-02	-4.76011956322E+01	-7.33360002347E+01	-1.46147534167E+02	-7.34777246249E+01	-1.43603727027E+02	-8.64460039020E-02	-4.85610278304E+01
5.28620089934E+08	-7.86423222456E-02	-4.76330284820E+01	-7.36832664801E+01	-1.45452904348E+02	-7.37333913445E+01	-1.44037006174E+02	-8.50913557843E-02	-4.85824104474E+01
5.28882869543E+08	-7.74341453621E-02	-4.76474103368E+01	-7.32687598284E+01	-1.42776722069E+02	-7.32496443780E+01	-1.43141313439E+02	-8.53037608401E-02	-4.86095342066E+01
5.29145779780E+08	-7.77752135166E-02	-4.76807129379E+01	-7.31532919966E+01	-1.43554005330E+02	-7.35186197698E+01	-1.44634253543E+02	-8.59121291768E-02	-4.86312358800E+01
5.29408820711E+08	-7.93269436291E-02	-4.77088704154E+01	-7.35006297325E+01	-1.42732371097E+02	-7.32111677855E+01	-1.44782935199E+02	-8.61710805926E-02	-4.86593482779E+01
