# Hz S DB R 50
! CMT, C2409, 19096212, 19.2.3/2
! Date: 4/1/2022 3:37:52 AM
! Data: Format (Calibration Info)
! Freq	S11:dB/Ang(F2)	S21:dB/Ang(F2)	S12:dB/Ang(F2)	S22:dB/Ang(F2)
5.00000000000E+08	-3.95405828632E+01	+2.92279694388E+01	-8.16433483646E-02	-4.58381871638E+01	-7.65466637604E-02	-4.58428218558E+01	-4.08803722388E+01	+5.14128904500E+01
5.00248552423E+08	-3.95115085043E+01	+2.94805630818E+01	-8.14325986649E-02	-4.58684450313E+01	-7.66675371930E-02	-4.58559033913E+01	-4.09174428034E+01	+5.14672119236E+01
5.00497228402E+08	-3.95257423967E+01	+2.96417928675E+01	-8.09952806559E-02	-4.58828571182E+01	-7.69505989688E-02	-4.58854096669E+01	-4.08570601646E+01	+5.11746977084E+01
5.00746028000E+08	-3.95075779956E+01	+2.94962306565E+01	-8.15279493293E-02	-4.59102139709E+01	-7.54300469618E-02	-4.59044549167E+01	-4.08496372750E+01	+5.15118619304E+01
5.00994951277E+08	-3.95110312969E+01	+2.93474055539E+01	-7.95557863679E-02	-4.59334544358E+01	-7.65681859638E-02	-4.59266916407E+01	-4.08764906041E+01	+5.12486198492E+01
5.01243998295E+08	-3.95451496065E+01	+2.96564386746E+01	-8.18969887757E-02	-4.59580138927E+01	-7.62439187456E-02	-4.59541582264E+01	-4.07777986740E+01	+5.11900862518E+01
5.01493169115E+08	-3.95275853224E+01	+2.98411023433E+01	-8.12047808047E-02	-4.59849329407E+01	-7.64007139541E-02	-4.59712228688E+01	-4.07995739561E+01	+5.11126272390E+01
5.01742463799E+08	-3.94887499888E+01	+2.98091295319E+01	-8.05045035851E-02	-4.60031978241E+01	-7.81555755896E-02	-4.59866312308E+01	-4.08006758811E+01	+5.11046498401E+01
5.01991882409E+08	-3.95147969647E+01	+2.96282214268E+01	-7.98755129132E-02	-4.60248673341E+01	-7.68843753003E-02	-4.60180400500E+01	-4.07162224991E+01	+5.11728874047E+01
5.02241425007E+08	-3.95194776625E+01	+3.01179771454E+01	-8.22815924952E-02	-4.60493213692E+01	-7.66757343379E-02	-4.60377180988E+01	-4.07135919245E+01	+5.11830031591E+01
5.02491091653E+08	-3.94999163427E+01	+3.01068937350E+01	-8.24787724832E-02	-4.60744589097E+01	-7.69649692199E-02	-4.60677690990E+01	-4.06505386330E+01	+5.08614290974E+01
5.02740882409E+08	-3.94427394150E+01	+2.98388353923E+01	-8.03063982790E-02	-4.60827536927E+01	-7.75077349721E-02	-4.60857376188E+01	-4.07026627445E+01	+5.13540188375E+01
5.02990797338E+08	-3.94723675373E+01	+2.98489232085E+01	-8.12898678017E-02	-4.61122042224E+01	-7.74367549965E-02	-4.61178738108E+01	-4.06391963754E+01	+5.08574138428E+01
5.03240836501E+08	-3.94632496150E+01	+2.99229321455E+01	-8.05059236324E-02	-4.61428275854E+01	-7.72522979148E-02	-4.61215381915E+01	-4.05534627506E+01	+5.10905416465E+01
5.03490999959E+08	-3.94298258006E+01	+3.02365662133E+01	-8.11380416062E-02	-4.61630446295E+01	-7.57629504598E-02	-4.61532551248E+01	-4.05475911279E+01	+5.12039139226E+01
5.03741287775E+08	-3.94711808942E+01	+2.99776601278E+01	-8.15483788239E-02	-4.61859704308E+01	-7.78551696859E-02	-4.61754315417E+01	-4.05621149420E+01	+5.10283434082E+01
5.03991700010E+08	-3.94593553547E+01	+3.04029260080E+01	-8.18838122980E-02	-4.62054024456E+01	-7.87505015285E-02	-4.62030067321E+01	-4.05757047303E+01	+5.07841923771E+01
5.04242236726E+08	-3.94405810222E+01	+3.04677956768E+01	-8.20073697645E-02	-4.62284891395E+01	-7.70220871721E-02	-4.62117800950E+01	-4.05238781759E+01	+5.10226328469E+01
5.04492897985E+08	-3.94438590348E+01	+3.04071761782E+01	-8.21851090044E-02	-4.62630638101E+01	-7.79055006294E-02	-4.62417412956E+01	-4.04890819044E+01	+5.10317428254E+01
5.04743683850E+08	-3.94330826753E+01	+3.04131243872E+01	-8.28943874024E-02	-4.62731782053E+01	-7.84063615755E-02	-4.62641724448E+01	-4.04475679927E+01	+5.10624880033E+01
5.04994594381E+08	-3.93761328228E+01	+3.03276440394E+01	-8.10305290269E-02	-4.63002946146E+01	-7.78719157624E-02	-4.62901912593E+01	-4.03842479582E+01	+5.09446424114E+01
5.05245629641E+08	-3.93950624759E+01	+3.06527833692E+01	-8.20914342245E-02	-4.63171028724E+01	-7.71458905642E-02	-4.63192242058E+01	-4.04088969151E+01	+5.08410430895E+01
5.05496789691E+08	-3.93952226663E+01	+3.07216097266E+01	-8.16562072957E-02	-4.63415657292E+01	-7.87287962247E-02	-4.63367919619E+01	-4.03918171504E+01	+5.10057376262E+01
5.05748074595E+08	-3.94078314698E+01	+3.07227789641E+01	-8.13635818864E-02	-4.63737223845E+01	-7.77439487366E-02	-4.63596863111E+01	-4.03569299643E+01	+5.03838727074E+01
5.05999484413E+08	-3.94023365536E+01	+3.10378127774E+01	-8.32996040858E-02	-4.63902458348E+01	-7.68377177438E-02	-4.63813393087E+01	-4.02952871884E+01	+5.08796578191E+01
5.06251019209E+08	-3.93891897825E+01	+3.07578116781E+01	-8.23295585978E-02	-4.64145852342E+01	-7.83533811802E-02	-4.64032328623E+01	-4.02848726831E+01	+5.07382676950E+01
5.06502679044E+08	-3.93738589270E+01	+3.07038285317E+01	-8.15097882701E-02	-4.64356619648E+01	-7.75678214382E-02	-4.64204132880E+01	-4.02547748863E+01	+5.12258578051E+01
5.06754463980E+08	-3.93500389770E+01	+3.08128989549E+01	-8.25570515761E-02	-4.64552938346E+01	-7.81062135857E-02	-4.64440725153E+01	-4.02833623549E+01	+5.06946911272E+01
5.07006374079E+08	-3.93684597533E+01	+3.09805776532E+01	-8.18534031422E-02	-4.64789858812E+01	-7.85300924257E-02	-4.64787911173E+01	-4.02600619006E+01	+5.08497430102E+01
5.07258409405E+08	-3.93699945918E+01	+3.13231044804E+01	-8.18411012094E-02	-4.65039928997E+01	-7.85377747854E-02	-4.64891417916E+01	-4.01975533474E+01	+5.09711045386E+01
5.07510570018E+08	-3.93958084317E+01	+3.11197853578E+01	-8.22216981750E-02	-4.65253630879E+01	-7.74215260873E-02	-4.65172245411E+01	-4.02369869672E+01	+5.06437483204E+01
5.07762855982E+08	-3.93789042597E+01	+3.12793891428E+01	-8.32926252779E-02	-4.65539344886E+01	-7.77896288974E-02	-4.65394115291E+01	-4.01478453817E+01	+5.12881463981E+01
5.08015267358E+08	-3.93852255573E+01	+3.11342969911E+01	-8.42462288273E-02	-4.65681264701E+01	-7.76650559956E-02	-4.65613871382E+01	-4.01388052132E+01	+5.06761991935E+01
5.08267804209E+08	-3.93760542752E+01	+3.10922808243E+01	-8.25883091055E-02	-4.65926966077E+01	-7.87543245442E-02	-4.65855188193E+01	-4.01016725702E+01	+5.07061702661E+01
5.08520466597E+08	-3.93847508222E+01	+3.14196622614E+01	-8.14296515521E-02	-4.66199961527E+01	-7.80535906373E-02	-4.66093148988E+01	-4.01175976134E+01	+5.06657077433E+01
5.08773254585E+08	-3.93788190500E+01	+3.15120442070E+01	-8.33517094166E-02	-4.66397010254E+01	-7.76167722630E-02	-4.66348721233E+01	-4.00989692486E+01	+5.09242049693E+01
5.09026168235E+08	-3.93473818974E+01	+3.15398494529E+01	-8.22598203501E-02	-4.66612437650E+01	-7.82465958919E-02	-4.66561283906E+01	-4.01026579634E+01	+5.10167818682E+01
5.09279207610E+08	-3.93486686646E+01	+3.15132537575E+01	-8.22262211950E-02	-4.66866566857E+01	-7.89466239272E-02	-4.66852939521E+01	-4.00309663161E+01	+5.08164582100E+01
5.09532372772E+08	-3.93921745757E+01	+3.13843252854E+01	-8.38912699403E-02	-4.67154758996E+01	-7.72345670427E-02	-4.66998264312E+01	-3.99993040434E+01	+5.06466648607E+01
5.09785663784E+08	-3.93657637351E+01	+3.14333053866E+01	-8.17480464058E-02	-4.67277927353E+01	-7.87615250686E-02	-4.67194223927E+01	-4.00226704158E+01	+5.09703005305E+01
5.10039080707E+08	-3.93701197273E+01	+3.15566211301E+01	-8.26023775801E-02	-4.67612412907E+01	-7.93370158728E-02	-4.67481433037E+01	-3.99716054151E+01	+5.05132535243E+01
5.10292623606E+08	-3.94117103512E+01	+3.19843860813E+01	-8.23910715607E-02	-4.67839565922E+01	-7.82836929131E-02	-4.67717467627E+01	-3.99608884006E+01	+5.08750371937E+01
5.10546292542E+08	-3.93805989438E+01	+3.18057871024E+01	-8.35907575591E-02	-4.68067633102E+01	-7.86474135252E-02	-4.67881581068E+01	-3.99094448273E+01	+5.09921522406E+01
5.10800087578E+08	-3.93750990083E+01	+3.17246125324E+01	-8.20520357995E-02	-4.68348934358E+01	-7.82144241714E-02	-4.68209966823E+01	-3.98963035327E+01	+5.10534002162E+01
5.11054008776E+08	-3.93420112775E+01	+3.19732122874E+01	-8.39236591503E-02	-4.68532409638E+01	-7.92265398165E-02	-4.68331923922E+01	-3.99131874563E+01	+5.09984863856E+01
5.11308056201E+08	-3.93647597310E+01	+3.18240482536E+01	-8.27669899448E-02	-4.68698774346E+01	-7.86280647956E-02	-4.68643382294E+01	-3.98991594699E+01	+5.07273695690E+01
5.11562229913E+08	-3.93346810259E+01	+3.19529264758E+01	-8.28932188260E-02	-4.68981082903E+01	-7.91786263317E-02	-4.68866971156E+01	-3.98504010436E+01	+5.06741212547E+01
5.11816529976E+08	-3.93911647927E+01	+3.19158772217E+01	-8.31469007083E-02	-4.69175678485E+01	-7.96075415246E-02	-4.68988606522E+01	-3.98470882193E+01	+5.08616338122E+01
5.12070956453E+08	-3.93755975676E+01	+3.19473091015E+01	-8.38623532664E-02	-4.69442280828E+01	-7.94769076513E-02	-4.69351293519E+01	-3.97874255874E+01	+5.09719387190E+01
5.12325509407E+08	-3.93944285017E+01	+3.19711066657E+01	-8.32002594147E-02	-4.69604559620E+01	-7.91554297111E-02	-4.69632804811E+01	-3.97967685107E+01	+5.10538721913E+01
5.12580188900E+08	-3.93655006663E+01	+3.19552812104E+01	-8.43822352707E-02	-4.69960879560E+01	-7.82856230849E-02	-4.69818892443E+01	-3.97810887403E+01	+5.07890723688E+01
5.12834994996E+08	-3.93592840765E+01	+3.20701009099E+01	-8.35678822554E-02	-4.70099260790E+01	-7.83729759091E-02	-4.70082157036E+01	-3.97663826221E+01	+5.10568312015E+01
5.13089927757E+08	-3.94013176124E+01	+3.18500328449E+01	-8.36191687459E-02	-4.70468676109E+01	-7.81548863889E-02	-4.70209330814E+01	-3.98105117394E+01	+5.10893219930E+01
5.13344987246E+08	-3.94206614745E+01	+3.18135025336E+01	-8.31751050971E-02	-4.70592260716E+01	-7.95665018750E-02	-4.70516845444E+01	-3.97525686469E+01	+5.12057644615E+01
5.13600173527E+08	-3.93620449353E+01	+3.22042563477E+01	-8.26608550832E-02	-4.70839570176E+01	-7.94718199614E-02	-4.70713204713E+01	-3.96863107625E+01	+5.08972410303E+01
5.13855486662E+08	-3.94014969771E+01	+3.21778954812E+01	-8.32821800443E-02	-4.71115689117E+01	-7.85217098836E-02	-4.71001388166E+01	-3.97269118889E+01	+5.09637165638E+01
5.14110926714E+08	-3.94160768567E+01	+3.21649801836E+01	-8.30902152506E-02	-4.71324834384E+01	-7.90144364829E-02	-4.71139060624E+01	-3.97085897986E+01	+5.11952416417E+01
5.14366493747E+08	-3.93868515977E+01	+3.21311286902E+01	-8.34364926010E-02	-4.71593066136E+01	-7.91451132920E-02	-4.71452606126E+01	-3.96653365729E+01	+5.12053463764E+01
5.14622187824E+08	-3.94232629363E+01	+3.24913009016E+01	-8.27650543454E-02	-4.71756866372E+01	-7.94824306857E-02	-4.71630354107E+01	-3.96594203846E+01	+5.12841312593E+01
5.14878009007E+08	-3.94709361002E+01	+3.22567663025E+01	-8.43653583147E-02	-4.72018011763E+01	-7.85231306395E-02	-4.71976809021E+01	-3.96634640030E+01	+5.08941620215E+01
5.15133957360E+08	-3.94312233218E+01	+3.23495761779E+01	-8.34280215694E-02	-4.72183025712E+01	-8.00063302235E-02	-4.72137765902E+01	-3.96344580342E+01	+5.11500290581E+01
5.15390032947E+08	-3.94509112160E+01	+3.22491436706E+01	-8.40222951601E-02	-4.72483285413E+01	-7.87689540340E-02	-4.72329636968E+01	-3.95978314737E+01	+5.14530691373E+01
5.15646235829E+08	-3.95014150867E+01	+3.22880852351E+01	-8.38089903988E-02	-4.72688178145E+01	-7.89622056611E-02	-4.72706678209E+01	-3.95662044740E+01	+5.12018848973E+01
5.15902566072E+08	-3.94768363960E+01	+3.23150411248E+01	-8.39174271413E-02	-4.72899426203E+01	-7.81970669296E-02	-4.72844830105E+01	-3.96036882264E+01	+5.12167783233E+01
5.16159023737E+08	-3.94791084606E+01	+3.25071936534E+01	-8.28046188316E-02	-4.73199235844E+01	-7.97547891778E-02	-4.73122958839E+01	-3.95954176834E+01	+5.11001278068E+01
5.16415608889E+08	-3.94923541219E+01	+3.23327597435E+01	-8.29545399926E-02	-4.73324210368E+01	-7.88463721865E-02	-4.73349770734E+01	-3.95117021287E+01	+5.13157800112E+01
5.16672321591E+08	-3.94773863752E+01	+3.23944374720E+01	-8.41761291166E-02	-4.73596138572E+01	-8.00424792847E-02	-4.73605862267E+01	-3.95542537976E+01	+5.13252322262E+01
5.16929161905E+08	-3.95083559052E+01	+3.22402595128E+01	-8.41708037639E-02	-4.73879314064E+01	-7.85571950996E-02	-4.73693646520E+01	-3.95710019644E+01	+5.11533708704E+01
5.17186129897E+08	-3.95115792073E+01	+3.23634789845E+01	-8.38256376645E-02	-4.74146958054E+01	-8.03215138651E-02	-4.74015328608E+01	-3.95065757770E+01	+5.11768080423E+01
5.17443225628E+08	-3.95298168189E+01	+3.23746802071E+01	-8.36224287156E-02	-4.74302042076E+01	-8.02056051268E-02	-4.74199686235E+01	-3.95307574249E+01	+5.15473030939E+01
5.17700449163E+08	-3.95191853370E+01	+3.26373206307E+01	-8.32241469414E-02	-4.74515893987E+01	-7.92807631728E-02	-4.74451175021E+01	-3.95217550772E+01	+5.16459125245E+01
5.17957800564E+08	-3.95723118200E+01	+3.24733555875E+01	-8.39142059508E-02	-4.74808840763E+01	-7.92924536024E-02	-4.74549027768E+01	-3.94848649069E+01	+5.14154672850E+01
5.18215279897E+08	-3.95461974592E+01	+3.22317439063E+01	-8.39783440029E-02	-4.74953694175E+01	-7.93016956609E-02	-4.74935601196E+01	-3.94945792130E+01	+5.14460970848E+01
5.18472887224E+08	-3.95852655330E+01	+3.26639329057E+01	-8.30811014052E-02	-4.75270558413E+01	-8.02010597062E-02	-4.75152668452E+01	-3.94902822052E+01	+5.15625945743E+01
5.18730622608E+08	-3.96003173871E+01	+3.24019202385E+01	-8.38605719240E-02	-4.75569056867E+01	-8.07598920367E-02	-4.75432626906E+01	-3.94903427106E+01	+5.11738507976E+01
5.18988486114E+08	-3.96117576067E+01	+3.24638549195E+01	-8.42127732731E-02	-4.75764562517E+01	-7.92276588473E-02	-4.75659167646E+01	-3.94667635424E+01	+5.14967884903E+01
5.19246477806E+08	-3.96455090492E+01	+3.25814120093E+01	-8.47561420681E-02	-4.75910783821E+01	-8.03593338084E-02	-4.75875163948E+01	-3.94672092691E+01	+5.16707231132E+01
5.19504597746E+08	-3.96665161499E+01	+3.23739468435E+01	-8.43339286053E-02	-4.76177166445E+01	-8.12551811796E-02	-4.76146963930E+01	-3.94836687358E+01	+5.15706379076E+01
5.19762845999E+08	-3.96380441725E+01	+3.24557665754E+01	-8.39595672654E-02	-4.76509078897E+01	-7.95943187733E-02	-4.76387869567E+01	-3.94647992181E+01	+5.13381473199E+01
5.20021222628E+08	-3.96749863762E+01	+3.25090632110E+01	-8.43726773475E-02	-4.76659207698E+01	-8.02900036984E-02	-4.76559467399E+01	-3.94484957760E+01	+5.18006080892E+01
5.20279727698E+08	-3.96553368571E+01	+3.25573284978E+01	-8.41794034305E-02	-4.76811830605E+01	-7.94941999646E-02	-4.76790097830E+01	-3.94808817519E+01	+5.17244059484E+01
5.20538361271E+08	-3.97232122513E+01	+3.25953992286E+01	-8.52852329279E-02	-4.77200149118E+01	-7.93786577048E-02	-4.77080321179E+01	-3.94503317212E+01	+5.16336123923E+01
5.20797123413E+08	-3.97116514157E+01	+3.25502542641E+01	-8.45467995817E-02	-4.77426551452E+01	-7.85467239333E-02	-4.77276413492E+01	-3.94473772340E+01	+5.17592284939E+01
5.21056014187E+08	-3.97306657163E+01	+3.23906384338E+01	-8.48389794448E-02	-4.77631966492E+01	-7.99558981745E-02	-4.77555002122E+01	-3.94400330973E+01	+5.19709689929E+01
5.21315033656E+08	-3.97284890111E+01	+3.27210808492E+01	-8.45894958065E-02	-4.77809711266E+01	-7.94445773031E-02	-4.77844514028E+01	-3.94114535491E+01	+5.21502650195E+01
5.21574181886E+08	-3.97692624305E+01	+3.28008872926E+01	-8.46114395720E-02	-4.78102399418E+01	-8.06293597545E-02	-4.77953924666E+01	-3.94109703823E+01	+5.18549287725E+01
5.21833458939E+08	-3.97906569704E+01	+3.25567248767E+01	-8.40753975002E-02	-4.78353417091E+01	-8.01084648801E-02	-4.78200626542E+01	-3.94768573250E+01	+5.18079594583E+01
5.22092864880E+08	-3.97619976688E+01	+3.25415903332E+01	-8.52666242822E-02	-4.78499982801E+01	-7.88296134552E-02	-4.78504778673E+01	-3.94534913371E+01	+5.19379258499E+01
5.22352399773E+08	-3.98143966237E+01	+3.27078357963E+01	-8.47081860934E-02	-4.78810036922E+01	-7.92804654862E-02	-4.78751920109E+01	-3.94559153745E+01	+5.21776662971E+01
5.22612063682E+08	-3.97750101402E+01	+3.22229514403E+01	-8.43752907605E-02	-4.79003670940E+01	-7.96254063200E-02	-4.78925530587E+01	-3.94111309915E+01	+5.23562849945E+01
5.22871856671E+08	-3.97791097740E+01	+3.24110453247E+01	-8.42426980057E-02	-4.79330881502E+01	-8.11396320660E-02	-4.79170706875E+01	-3.94514405744E+01	+5.22003433242E+01
5.23131778805E+08	-3.98276333664E+01	+3.25981821271E+01	-8.46658473772E-02	-4.79502203253E+01	-8.06083223101E-02	-4.79377960498E+01	-3.94271254129E+01	+5.21396058661E+01
5.23391830147E+08	-3.98880890745E+01	+3.25183496183E+01	-8.34502214676E-02	-4.79786695039E+01	-7.98053753489E-02	-4.79694869694E+01	-3.94389922404E+01	+5.21591310140E+01
5.23652010762E+08	-3.98998369014E+01	+3.26848282011E+01	-8.44999669083E-02	-4.80011888626E+01	-7.99415663698E-02	-4.79987815597E+01	-3.94647308507E+01	+5.24306827993E+01
5.23912320714E+08	-3.99184564215E+01	+3.26053520133E+01	-8.49360971937E-02	-4.80200407313E+01	-8.06383955522E-02	-4.80219069953E+01	-3.94590841292E+01	+5.23055574674E+01
5.24172760067E+08	-3.98881997094E+01	+3.22835808776E+01	-8.52248837741E-02	-4.80509949344E+01	-8.00194474481E-02	-4.80402971940E+01	-3.94383774148E+01	+5.24579643834E+01
5.24433328886E+08	-3.98888281357E+01	+3.25962013508E+01	-8.59801531207E-02	-4.80602330243E+01	-8.00246460647E-02	-4.80660510111E+01	-3.94520119412E+01	+5.26121424244E+01
5.24694027235E+08	-3.99476667753E+01	+3.20590953069E+01	-8.46734722124E-02	-4.80894001309E+01	-7.99610356220E-02	-4.80938825907E+01	-3.94595119158E+01	+5.27608145115E+01
5.24954855178E+08	-4.00106227569E+01	+3.23680621439E+01	-8.46401113777E-02	-4.81144484181E+01	-7.95660317741E-02	-4.81062666306E+01	-3.94299232797E+01	+5.28388072941E+01
5.25215812781E+08	-4.00597495015E+01	+3.20262608164E+01	-8.52093051267E-02	-4.81401634426E+01	-8.10947162276E-02	-4.81289567422E+01	-3.94159884753E+01	+5.27649008879E+01
5.25476900106E+08	-4.00000931635E+01	+3.22240555873E+01	-8.48465145324E-02	-4.81662698833E+01	-8.06363921490E-02	-4.81663359475E+01	-3.94626372879E+01	+5.28275522768E+01
5.25738117220E+08	-4.00037334865E+01	+3.23226720862E+01	-8.43467049327E-02	-4.81910694762E+01	-8.05449099313E-02	-4.81829334397E+01	-3.94713232401E+01	+5.27549675301E+01
5.25999464185E+08	-4.00225461077E+01	+3.20453806661E+01	-8.41982888788E-02	-4.82174233831E+01	-8.02927689606E-02	-4.82071082173E+01	-3.95121284804E+01	+5.28504702343E+01
5.26260941068E+08	-4.00462789340E+01	+3.23144301253E+01	-8.57196911904E-02	-4.82443623196E+01	-7.94641744228E-02	-4.82275123838E+01	-3.94878083210E+01	+5.30813877635E+01
5.26522547932E+08	-4.00796865639E+01	+3.23913773123E+01	-8.60859511978E-02	-4.82578429143E+01	-8.08525245076E-02	-4.82566917856E+01	-3.94641403602E+01	+5.32479515232E+01
5.26784284841E+08	-4.01300612170E+01	+3.22175581635E+01	-8.55279662212E-02	-4.82872085851E+01	-8.03728526976E-02	-4.82894920544E+01	-3.95138682805E+01	+5.29892614160E+01
5.27046151862E+08	-4.01794631154E+01	+3.19681908123E+01	-8.50632914845E-02	-4.83093573843E+01	-7.99241213461E-02	-4.82995577205E+01	-3.95225158857E+01	+5.28666921425E+01
5.27308149058E+08	-4.01272457432E+01	+3.19613157068E+01	-8.44940958635E-02	-4.83382495108E+01	-8.03119060382E-02	-4.83297348365E+01	-3.95246628306E+01	+5.33161047288E+01
5.27570276494E+08	-4.01753358931E+01	+3.20481361637E+01	-8.63060682283E-02	-4.83523318348E+01	-8.07789316984E-02	-4.83556001410E+01	-3.94449541127E+01	+5.32620868099E+01
5.27832534235E+08	-4.02018788659E+01	+3.20310664385E+01	-8.53999231082E-02	-4.83773723311E+01	-8.03814757621E-02	-4.83719251247E+01	-3.95400049854E+01	+5.32762438885E+01
5.28094922345E+08	-4.02073460016E+01	+3.17452277460E+01	-8.58940601987E-02	-4.84094721132E+01	-8.12453942143E-02	-4.84047313665E+01	-3.95761708142E+01	+5.33308314999E+01
5.28357440890E+08	-4.01797580397E+01	+3.20367759947E+01	-8.57048547112E-02	-4.84263936526E+01	-8.15825293620E-02	-4.84191374961E+01	-3.95738923335E+01	+5.30992044797E+01
5.28620089934E+08	-4.02248515225E+01	+3.17316303426E+01	-8.60559394889E-02	-4.84568656911E+01	-8.07442209755E-02	-4.84439063712E+01	-3.95531972236E+01	+5.37248352767E+01
5.28882869543E+08	-4.03049186023E+01	+3.15912324523E+01	-8.53303856924E-02	-4.84717310461E+01	-8.12845328839E-02	-4.84704483850E+01	-3.95908983470E+01	+5.36200901201E+01
5.29145779780E+08	-4.02891681581E+01	+3.18241168219E+01	-8.56537967206E-02	-4.84960157654E+01	-8.11050566423E-02	-4.84943487930E+01	-3.95798177881E+01	+5.36557991569E+01
5.29408820711E+08	-4.03102036473E+01	+3.15591494702E+01	-8.55608895155E-02	-4.85089026180E+01	-8.13103395723E-02	-4.85165943237E+01	-3.96173577495E+01	+5.39519985822E+01
