# Hz S DB R 50
! CMT, C2409, 19096212, 19.2.3/2
! Date: 4/1/2022 3:36:35 AM
! Data: Format (Calibration Info)
! Freq	S11:dB/Ang(F2)	S21:dB/Ang(F2)	S12:dB/Ang(F2)	S22:dB/Ang(F2)
5.00000000000E+08	-3.29600342600E-02	-2.83218665283E+01	-3.23025544317E+01	+3.97890476503E+01	-3.23057139008E+01	+3.98260764060E+01	-1.31531040046E-01	-7.09365270864E+01
5.00248552423E+08	-3.52347940516E-02	-2.83348396415E+01	-3.22993907797E+01	+3.96675135567E+01	-3.22886630907E+01	+3.97385666290E+01	-1.31991686398E-01	-7.09772915619E+01
5.00497228402E+08	-3.58299923452E-02	-2.83425407632E+01	-3.23042035483E+01	+3.96802620608E+01	-3.22900479711E+01	+3.97006122139E+01	-1.30569116367E-01	-7.10137283289E+01
5.00746028000E+08	-3.56988531355E-02	-2.83546072277E+01	-3.22928655185E+01	+3.96797559492E+01	-3.22862888383E+01	+3.97397639425E+01	-1.31928988064E-01	-7.10500969851E+01
5.00994951277E+08	-3.58871501080E-02	-2.83735025951E+01	-3.22911769931E+01	+3.97059116298E+01	-3.22851311635E+01	+3.97289162555E+01	-1.31055684365E-01	-7.10778217729E+01
5.01243998295E+08	-3.49691705388E-02	-2.83735305409E+01	-3.22746897239E+01	+3.96540269136E+01	-3.22869879569E+01	+3.96678285136E+01	-1.32950518620E-01	-7.11129858657E+01
5.01493169115E+08	-3.78226721701E-02	-2.83943065785E+01	-3.22849430795E+01	+3.95546461691E+01	-3.22742416525E+01	+3.96771672942E+01	-1.34311890311E-01	-7.11523765665E+01
5.01742463799E+08	-3.55352447307E-02	-2.83992762971E+01	-3.22675052545E+01	+3.95842621234E+01	-3.22713542871E+01	+3.96666031632E+01	-1.32608918659E-01	-7.11907669545E+01
5.01991882409E+08	-3.82884823513E-02	-2.84134275670E+01	-3.22707159767E+01	+3.95132634344E+01	-3.22721756723E+01	+3.96101862100E+01	-1.32765367180E-01	-7.12156344518E+01
5.02241425007E+08	-3.74226758951E-02	-2.84174828226E+01	-3.22636939258E+01	+3.95774333764E+01	-3.22548404915E+01	+3.95916366442E+01	-1.32699928843E-01	-7.12550446355E+01
5.02491091653E+08	-3.55236052489E-02	-2.84439775472E+01	-3.22614856601E+01	+3.94658921380E+01	-3.22631165347E+01	+3.95810424592E+01	-1.32663279822E-01	-7.12894393012E+01
5.02740882409E+08	-3.72111870532E-02	-2.84490744197E+01	-3.22467214791E+01	+3.94354029570E+01	-3.22638489318E+01	+3.95082161021E+01	-1.34077431019E-01	-7.13112116978E+01
5.02990797338E+08	-3.73408606654E-02	-2.84569091596E+01	-3.22455402889E+01	+3.94431471556E+01	-3.22445113626E+01	+3.95761851033E+01	-1.34190056788E-01	-7.13522183586E+01
5.03240836501E+08	-3.64764746424E-02	-2.84735043143E+01	-3.22379377961E+01	+3.95000049244E+01	-3.22471017356E+01	+3.95202681709E+01	-1.33881912598E-01	-7.13942532148E+01
5.03490999959E+08	-3.80655156610E-02	-2.84956076971E+01	-3.22484673147E+01	+3.94035349069E+01	-3.22487774144E+01	+3.94801558093E+01	-1.34141456224E-01	-7.14310882301E+01
5.03741287775E+08	-3.74873101021E-02	-2.84969130155E+01	-3.22409211927E+01	+3.93566683303E+01	-3.22399410001E+01	+3.94493327725E+01	-1.34168774956E-01	-7.14611997433E+01
5.03991700010E+08	-3.70890146094E-02	-2.85117995911E+01	-3.22304857610E+01	+3.94127419332E+01	-3.22484002084E+01	+3.93967079985E+01	-1.35681563048E-01	-7.14968243834E+01
5.04242236726E+08	-3.75884157414E-02	-2.85323891202E+01	-3.22397548895E+01	+3.93007359193E+01	-3.22280037840E+01	+3.94264539226E+01	-1.35785925418E-01	-7.15324499372E+01
5.04492897985E+08	-3.78609897249E-02	-2.85374022870E+01	-3.22201198426E+01	+3.94018057562E+01	-3.22306691296E+01	+3.94033330721E+01	-1.34956161389E-01	-7.15717082377E+01
5.04743683850E+08	-3.79316605914E-02	-2.85503612392E+01	-3.22269595145E+01	+3.92481845781E+01	-3.22331363368E+01	+3.93992631784E+01	-1.35311867704E-01	-7.15969181337E+01
5.04994594381E+08	-3.83100246011E-02	-2.85681723451E+01	-3.22144300551E+01	+3.92384528873E+01	-3.22199897734E+01	+3.93189487831E+01	-1.35899511622E-01	-7.16291669363E+01
5.05245629641E+08	-3.82329383020E-02	-2.85699300726E+01	-3.22236909734E+01	+3.92769991512E+01	-3.22146263536E+01	+3.93129242381E+01	-1.35377310777E-01	-7.16580286907E+01
5.05496789691E+08	-3.83603374844E-02	-2.85899828532E+01	-3.22057312170E+01	+3.92831129204E+01	-3.22197104388E+01	+3.93353240698E+01	-1.36643527277E-01	-7.16972271485E+01
5.05748074595E+08	-3.77731646569E-02	-2.85971393161E+01	-3.22028734282E+01	+3.91882923639E+01	-3.22053140211E+01	+3.92321588438E+01	-1.36193496073E-01	-7.17290203718E+01
5.05999484413E+08	-3.87017134005E-02	-2.86042619619E+01	-3.22014742220E+01	+3.92187358837E+01	-3.21943220131E+01	+3.92748668059E+01	-1.38019531888E-01	-7.17751690595E+01
5.06251019209E+08	-3.87520341547E-02	-2.86205513200E+01	-3.21937663444E+01	+3.91585883113E+01	-3.22059429652E+01	+3.93180785209E+01	-1.37038432273E-01	-7.18013011841E+01
5.06502679044E+08	-3.90137651100E-02	-2.86344725927E+01	-3.21859172788E+01	+3.91756533814E+01	-3.21869267303E+01	+3.92180921093E+01	-1.38093367370E-01	-7.18422530293E+01
5.06754463980E+08	-3.92842107884E-02	-2.86506057810E+01	-3.21864684528E+01	+3.91237407001E+01	-3.21910164974E+01	+3.91694470200E+01	-1.37078716055E-01	-7.18686954121E+01
5.07006374079E+08	-3.73904279383E-02	-2.86682750221E+01	-3.21820584918E+01	+3.90988676945E+01	-3.21811654316E+01	+3.91551888746E+01	-1.37687653740E-01	-7.19165027463E+01
5.07258409405E+08	-3.94756354866E-02	-2.86672053135E+01	-3.21761960836E+01	+3.90473050727E+01	-3.21905609140E+01	+3.91331742861E+01	-1.38162306767E-01	-7.19459489580E+01
5.07510570018E+08	-3.97847102799E-02	-2.86835083320E+01	-3.21801614208E+01	+3.90248547685E+01	-3.21753015721E+01	+3.91319091824E+01	-1.38231287677E-01	-7.19861002678E+01
5.07762855982E+08	-3.84657029966E-02	-2.87036554576E+01	-3.21614004560E+01	+3.89987905323E+01	-3.21679714639E+01	+3.91094208954E+01	-1.39016435428E-01	-7.20121978311E+01
5.08015267358E+08	-3.93877652719E-02	-2.87179931070E+01	-3.21644710314E+01	+3.89920273804E+01	-3.21635229188E+01	+3.90846288104E+01	-1.38573333204E-01	-7.20381176071E+01
5.08267804209E+08	-3.84956980383E-02	-2.87255792708E+01	-3.21595125289E+01	+3.89497541698E+01	-3.21596984094E+01	+3.90282126117E+01	-1.38979656703E-01	-7.20816810387E+01
5.08520466597E+08	-3.94983635686E-02	-2.87420366529E+01	-3.21584495967E+01	+3.89050713796E+01	-3.21532883015E+01	+3.90657309974E+01	-1.39079709122E-01	-7.21195883323E+01
5.08773254585E+08	-3.96442816120E-02	-2.87568904875E+01	-3.21564762516E+01	+3.89831204707E+01	-3.21557314745E+01	+3.89622777055E+01	-1.38846194365E-01	-7.21540865974E+01
5.09026168235E+08	-3.92782150830E-02	-2.87652248814E+01	-3.21383723643E+01	+3.88870914591E+01	-3.21550029407E+01	+3.89935701654E+01	-1.40454534092E-01	-7.21946662965E+01
5.09279207610E+08	-3.90948013791E-02	-2.87781547121E+01	-3.21394719860E+01	+3.88660283025E+01	-3.21562908951E+01	+3.89261558705E+01	-1.39923200456E-01	-7.22407084221E+01
5.09532372772E+08	-3.89262155854E-02	-2.87936940297E+01	-3.21336595958E+01	+3.88497113056E+01	-3.21500473034E+01	+3.88820228910E+01	-1.40299361577E-01	-7.22625449426E+01
5.09785663784E+08	-4.01809762511E-02	-2.88161084422E+01	-3.21259873371E+01	+3.87851901509E+01	-3.21331774167E+01	+3.88506371902E+01	-1.41203680964E-01	-7.22983617574E+01
5.10039080707E+08	-3.98288314801E-02	-2.88143235880E+01	-3.21288248788E+01	+3.87704873668E+01	-3.21368870362E+01	+3.88313956136E+01	-1.40997929778E-01	-7.23321497692E+01
5.10292623606E+08	-4.06046082361E-02	-2.88404269834E+01	-3.21216251109E+01	+3.87866897327E+01	-3.21240815813E+01	+3.87975969976E+01	-1.40822213870E-01	-7.23663345922E+01
5.10546292542E+08	-3.98736823698E-02	-2.88446153809E+01	-3.21200057708E+01	+3.86725550714E+01	-3.21343847465E+01	+3.87811791630E+01	-1.42186459348E-01	-7.24043100520E+01
5.10800087578E+08	-4.02330495857E-02	-2.88631202709E+01	-3.21204543868E+01	+3.87369112774E+01	-3.21278470488E+01	+3.87727400137E+01	-1.41997343684E-01	-7.24422158245E+01
5.11054008776E+08	-3.92672843874E-02	-2.88770965244E+01	-3.21089626212E+01	+3.87524205385E+01	-3.21224842645E+01	+3.87803535364E+01	-1.41773680360E-01	-7.24719866422E+01
5.11308056201E+08	-4.14867838117E-02	-2.88862989160E+01	-3.21066164569E+01	+3.86450554876E+01	-3.21228518149E+01	+3.87137310278E+01	-1.42478540979E-01	-7.25090914661E+01
5.11562229913E+08	-3.95972460435E-02	-2.89000029382E+01	-3.21026441176E+01	+3.86894302052E+01	-3.21047719762E+01	+3.87316744474E+01	-1.42020685138E-01	-7.25451392749E+01
5.11816529976E+08	-3.97676367002E-02	-2.89073619390E+01	-3.20910780455E+01	+3.86317017839E+01	-3.21108220679E+01	+3.87327288046E+01	-1.42135447566E-01	-7.25733914380E+01
5.12070956453E+08	-4.13146647875E-02	-2.89306210086E+01	-3.20867739873E+01	+3.85720277983E+01	-3.21015896937E+01	+3.86689068068E+01	-1.43603864357E-01	-7.26156395805E+01
5.12325509407E+08	-4.04934560661E-02	-2.89371187136E+01	-3.20944115332E+01	+3.85462374041E+01	-3.21009490252E+01	+3.86472093291E+01	-1.43128245322E-01	-7.26449930664E+01
5.12580188900E+08	-4.08117441647E-02	-2.89473557946E+01	-3.20857121014E+01	+3.85024933613E+01	-3.20961645655E+01	+3.85850042124E+01	-1.42419445917E-01	-7.26888972992E+01
5.12834994996E+08	-3.98982154504E-02	-2.89629794314E+01	-3.20761358169E+01	+3.85299625932E+01	-3.20898529625E+01	+3.85956083204E+01	-1.44889455833E-01	-7.27227972131E+01
5.13089927757E+08	-4.12560003409E-02	-2.89881892924E+01	-3.20781740225E+01	+3.84867181431E+01	-3.20829137858E+01	+3.85689188707E+01	-1.44409495769E-01	-7.27525503961E+01
5.13344987246E+08	-4.11373470878E-02	-2.89951053760E+01	-3.20641306066E+01	+3.85176767156E+01	-3.20719744722E+01	+3.86250683555E+01	-1.45130101425E-01	-7.27915085238E+01
5.13600173527E+08	-4.11201488996E-02	-2.90105741944E+01	-3.20731439903E+01	+3.84060046135E+01	-3.20752921670E+01	+3.84957541767E+01	-1.45728327666E-01	-7.28187088050E+01
5.13855486662E+08	-4.11755794162E-02	-2.90294426997E+01	-3.20608547532E+01	+3.84503833112E+01	-3.20658183180E+01	+3.84941814233E+01	-1.44860939430E-01	-7.28641697045E+01
5.14110926714E+08	-4.15731048257E-02	-2.90368619226E+01	-3.20598588411E+01	+3.83755218300E+01	-3.20710788611E+01	+3.84957330510E+01	-1.45069575809E-01	-7.28887722762E+01
5.14366493747E+08	-4.32211951540E-02	-2.90541602663E+01	-3.20633349937E+01	+3.83824870218E+01	-3.20589210545E+01	+3.84463301496E+01	-1.45731296986E-01	-7.29355307555E+01
5.14622187824E+08	-4.16568409165E-02	-2.90698327549E+01	-3.20530012811E+01	+3.83471132143E+01	-3.20626191100E+01	+3.83940880508E+01	-1.45569754718E-01	-7.29612338717E+01
5.14878009007E+08	-4.26175777453E-02	-2.90773560738E+01	-3.20464144059E+01	+3.83217215380E+01	-3.20657928280E+01	+3.83279306056E+01	-1.45109063566E-01	-7.30150300282E+01
5.15133957360E+08	-4.19194819335E-02	-2.91052753767E+01	-3.20504281647E+01	+3.83798725177E+01	-3.20562765972E+01	+3.84071312047E+01	-1.45399982176E-01	-7.30316812232E+01
5.15390032947E+08	-4.14777287623E-02	-2.91134205759E+01	-3.20440928703E+01	+3.82389681864E+01	-3.20416351749E+01	+3.83023353246E+01	-1.45750859230E-01	-7.30686602092E+01
5.15646235829E+08	-4.21647346044E-02	-2.91282105929E+01	-3.20333425044E+01	+3.81861459930E+01	-3.20303368290E+01	+3.82996505783E+01	-1.46999870826E-01	-7.31155775521E+01
5.15902566072E+08	-4.22109641649E-02	-2.91431487579E+01	-3.20300832747E+01	+3.81728677486E+01	-3.20359844535E+01	+3.82828373266E+01	-1.45691280291E-01	-7.31427500326E+01
5.16159023737E+08	-4.10403556185E-02	-2.91572010963E+01	-3.20286530577E+01	+3.81654735114E+01	-3.20356205221E+01	+3.82353840239E+01	-1.47219399307E-01	-7.31885099773E+01
5.16415608889E+08	-4.19944241794E-02	-2.91738008599E+01	-3.20236018701E+01	+3.81010159554E+01	-3.20364825915E+01	+3.81943866521E+01	-1.47069815630E-01	-7.32203578542E+01
5.16672321591E+08	-4.23344941051E-02	-2.91846916178E+01	-3.20239458466E+01	+3.81011016580E+01	-3.20159794525E+01	+3.82308675010E+01	-1.47236087292E-01	-7.32569041546E+01
5.16929161905E+08	-4.26859652679E-02	-2.91983164138E+01	-3.20112229371E+01	+3.81110049070E+01	-3.20195026877E+01	+3.81757215930E+01	-1.46380941863E-01	-7.32878941545E+01
5.17186129897E+08	-4.25811014894E-02	-2.92174800640E+01	-3.20058384676E+01	+3.80433634526E+01	-3.20143600721E+01	+3.81438107188E+01	-1.48476416602E-01	-7.33330519636E+01
5.17443225628E+08	-4.27866869472E-02	-2.92298062362E+01	-3.20153100641E+01	+3.80575339935E+01	-3.20049699674E+01	+3.81111138688E+01	-1.47649803025E-01	-7.33672245477E+01
5.17700449163E+08	-4.26790917428E-02	-2.92412904413E+01	-3.20020941090E+01	+3.80266032644E+01	-3.20114599178E+01	+3.81513643359E+01	-1.48061208888E-01	-7.33991425469E+01
5.17957800564E+08	-4.39733358255E-02	-2.92604838999E+01	-3.19928119311E+01	+3.79762894796E+01	-3.20065349634E+01	+3.82079122471E+01	-1.48867008249E-01	-7.34332493741E+01
5.18215279897E+08	-4.19189871931E-02	-2.92709678692E+01	-3.19894774863E+01	+3.80045435474E+01	-3.19937446857E+01	+3.80663202134E+01	-1.48113680671E-01	-7.34724673983E+01
5.18472887224E+08	-4.27791905633E-02	-2.92808245952E+01	-3.19882548618E+01	+3.79594338392E+01	-3.19999001928E+01	+3.80546705766E+01	-1.48453251407E-01	-7.35124602200E+01
5.18730622608E+08	-4.32188794578E-02	-2.93055568123E+01	-3.19841439168E+01	+3.78512921703E+01	-3.19848026774E+01	+3.81006861240E+01	-1.49125387496E-01	-7.35426535328E+01
5.18988486114E+08	-4.26902344408E-02	-2.93224000908E+01	-3.19764341042E+01	+3.79030955388E+01	-3.19910253012E+01	+3.80553411605E+01	-1.48954929440E-01	-7.35843737706E+01
5.19246477806E+08	-4.35007663353E-02	-2.93226042799E+01	-3.19703141359E+01	+3.79003445574E+01	-3.19824564096E+01	+3.79464264331E+01	-1.48031686722E-01	-7.36268642062E+01
5.19504597746E+08	-4.31079349375E-02	-2.93447664465E+01	-3.19611812605E+01	+3.78135942153E+01	-3.19724673741E+01	+3.79585638440E+01	-1.49011328967E-01	-7.36592835886E+01
5.19762845999E+08	-4.41177688811E-02	-2.93637195865E+01	-3.19811922243E+01	+3.78027492745E+01	-3.19751256125E+01	+3.79180589744E+01	-1.48743879785E-01	-7.36918765773E+01
5.20021222628E+08	-4.42997725191E-02	-2.93746257244E+01	-3.19549516132E+01	+3.78007004686E+01	-3.19698254141E+01	+3.78621398682E+01	-1.49151730167E-01	-7.37343621893E+01
5.20279727698E+08	-4.38917238099E-02	-2.93983846396E+01	-3.19530273830E+01	+3.77992377838E+01	-3.19539084876E+01	+3.79172267674E+01	-1.48808722782E-01	-7.37653882589E+01
5.20538361271E+08	-4.51336229805E-02	-2.94119212255E+01	-3.19530648848E+01	+3.77147323566E+01	-3.19622043349E+01	+3.78445223717E+01	-1.49985360493E-01	-7.37993919343E+01
5.20797123413E+08	-4.38270710732E-02	-2.94218784093E+01	-3.19468894551E+01	+3.77345477212E+01	-3.19361310366E+01	+3.77952183846E+01	-1.51228524188E-01	-7.38455074758E+01
5.21056014187E+08	-4.38404794986E-02	-2.94455112716E+01	-3.19426208440E+01	+3.76238588587E+01	-3.19533789968E+01	+3.77561259823E+01	-1.49849506139E-01	-7.38763381707E+01
5.21315033656E+08	-4.48484563831E-02	-2.94579260188E+01	-3.19417150825E+01	+3.76719090218E+01	-3.19456924446E+01	+3.77218921991E+01	-1.51386018968E-01	-7.39193916958E+01
5.21574181886E+08	-4.54602106534E-02	-2.94708481031E+01	-3.19376033756E+01	+3.75349670065E+01	-3.19434534766E+01	+3.76879627586E+01	-1.51143964142E-01	-7.39481080867E+01
5.21833458939E+08	-4.48318960429E-02	-2.94954843287E+01	-3.19220074814E+01	+3.76213096514E+01	-3.19401485621E+01	+3.78055897784E+01	-1.50609584268E-01	-7.39942045125E+01
5.22092864880E+08	-4.55098351543E-02	-2.94981504494E+01	-3.19186296891E+01	+3.75736419356E+01	-3.19350995660E+01	+3.76746471139E+01	-1.50154739996E-01	-7.40210873428E+01
5.22352399773E+08	-4.60719352161E-02	-2.95200193144E+01	-3.19177088211E+01	+3.75393151971E+01	-3.19352658258E+01	+3.76387860867E+01	-1.51536219259E-01	-7.40745048351E+01
5.22612063682E+08	-4.51426953922E-02	-2.95312637510E+01	-3.19121751639E+01	+3.74759380421E+01	-3.19173033750E+01	+3.76385270789E+01	-1.51728934890E-01	-7.41081417056E+01
5.22871856671E+08	-4.52333444124E-02	-2.95382586286E+01	-3.19160848268E+01	+3.75011910458E+01	-3.19200807571E+01	+3.76212079652E+01	-1.51929211185E-01	-7.41480029631E+01
5.23131778805E+08	-4.56536328844E-02	-2.95599452345E+01	-3.19075316472E+01	+3.74138808594E+01	-3.19137985238E+01	+3.75688235226E+01	-1.50939690259E-01	-7.41806926632E+01
5.23391830147E+08	-4.46001207241E-02	-2.95744717602E+01	-3.18982357748E+01	+3.73963427780E+01	-3.19140369366E+01	+3.75776300791E+01	-1.51256774195E-01	-7.42187971871E+01
5.23652010762E+08	-4.60078432482E-02	-2.95963427474E+01	-3.19032177448E+01	+3.73753818008E+01	-3.19107531103E+01	+3.75709138870E+01	-1.51364069111E-01	-7.42545492504E+01
5.23912320714E+08	-4.61372595068E-02	-2.96029503697E+01	-3.18955132444E+01	+3.73805024543E+01	-3.19014908094E+01	+3.75293522873E+01	-1.52035205921E-01	-7.42879675544E+01
5.24172760067E+08	-4.53232002036E-02	-2.96270817721E+01	-3.18975678252E+01	+3.73604452409E+01	-3.19096534975E+01	+3.75074837162E+01	-1.52013846355E-01	-7.43322326545E+01
5.24433328886E+08	-4.66047838816E-02	-2.96399628241E+01	-3.18907337553E+01	+3.73521495378E+01	-3.18905848099E+01	+3.74304684519E+01	-1.51935561621E-01	-7.43643029554E+01
5.24694027235E+08	-4.50887846592E-02	-2.96628542584E+01	-3.18792085792E+01	+3.73673292768E+01	-3.18909601527E+01	+3.74112051987E+01	-1.52841494685E-01	-7.44080170900E+01
5.24954855178E+08	-4.69222537892E-02	-2.96728780799E+01	-3.18820764934E+01	+3.72308290595E+01	-3.18825568049E+01	+3.73707262363E+01	-1.52351305543E-01	-7.44408716044E+01
5.25215812781E+08	-4.71124075626E-02	-2.96872484697E+01	-3.18714478352E+01	+3.72102532755E+01	-3.18700244307E+01	+3.74009145219E+01	-1.52419190576E-01	-7.44771466931E+01
5.25476900106E+08	-4.70489510335E-02	-2.97015947035E+01	-3.18647880581E+01	+3.72355521824E+01	-3.18683245865E+01	+3.73762437741E+01	-1.52976418648E-01	-7.45113629081E+01
5.25738117220E+08	-4.67431863570E-02	-2.97225233645E+01	-3.18620856359E+01	+3.72046662080E+01	-3.18679049341E+01	+3.73116953710E+01	-1.53721630475E-01	-7.45560872948E+01
5.25999464185E+08	-4.69577948279E-02	-2.97319316257E+01	-3.18544445775E+01	+3.71992935060E+01	-3.18664674942E+01	+3.73437131185E+01	-1.53363701655E-01	-7.45929207478E+01
5.26260941068E+08	-4.83371445866E-02	-2.97436472643E+01	-3.18597732719E+01	+3.70957290218E+01	-3.18647650372E+01	+3.72739538979E+01	-1.52566658219E-01	-7.46328015592E+01
5.26522547932E+08	-4.73629360831E-02	-2.97680252227E+01	-3.18577662185E+01	+3.71744789893E+01	-3.18627784039E+01	+3.72875516450E+01	-1.52974170092E-01	-7.46723058809E+01
5.26784284841E+08	-4.76719100553E-02	-2.97799900329E+01	-3.18541462220E+01	+3.71069523492E+01	-3.18573073327E+01	+3.72640385660E+01	-1.53386800099E-01	-7.47077147004E+01
5.27046151862E+08	-4.67327820674E-02	-2.97941429183E+01	-3.18319334235E+01	+3.70699435096E+01	-3.18350616309E+01	+3.72001390170E+01	-1.52326364309E-01	-7.47455257589E+01
5.27308149058E+08	-4.77912511449E-02	-2.98158957284E+01	-3.18443902890E+01	+3.70757356074E+01	-3.18378695612E+01	+3.71633669260E+01	-1.53938814656E-01	-7.47863004414E+01
5.27570276494E+08	-4.88422205859E-02	-2.98321075046E+01	-3.18415863456E+01	+3.70274826610E+01	-3.18360772591E+01	+3.71242304350E+01	-1.54315900983E-01	-7.48273553557E+01
5.27832534235E+08	-4.73686794779E-02	-2.98434395797E+01	-3.18296003582E+01	+3.70083934683E+01	-3.18323714393E+01	+3.70934900286E+01	-1.54317233616E-01	-7.48632895726E+01
5.28094922345E+08	-4.83158660218E-02	-2.98638844191E+01	-3.18182408910E+01	+3.69074441284E+01	-3.18350351531E+01	+3.70700744894E+01	-1.53951239545E-01	-7.49080655915E+01
5.28357440890E+08	-4.89006463458E-02	-2.98762443227E+01	-3.18227689165E+01	+3.69452712370E+01	-3.18276355206E+01	+3.70804410746E+01	-1.53929850835E-01	-7.49372186575E+01
5.28620089934E+08	-4.88634772271E-02	-2.98927864324E+01	-3.18240975125E+01	+3.69008665348E+01	-3.18187895233E+01	+3.70357016418E+01	-1.53248180872E-01	-7.49827447523E+01
5.28882869543E+08	-4.74168572136E-02	-2.99046545170E+01	-3.18191512328E+01	+3.68843553287E+01	-3.18095834903E+01	+3.70047718006E+01	-1.53784181998E-01	-7.50251894116E+01
5.29145779780E+08	-4.75690315667E-02	-2.99164771250E+01	-3.18034845451E+01	+3.68389226460E+01	-3.18115103561E+01	+3.69514120531E+01	-1.54833252053E-01	-7.50593818310E+01
5.29408820711E+08	-4.87692465248E-02	-2.99414060236E+01	-3.18123892922E+01	+3.68103378374E+01	-3.18013362866E+01	+3.69919570752E+01	-1.55425527738E-01	-7.51023146626E+01
