# Hz S DB R 50
! CMT, C2409, 19096212, 19.2.3/2
! Date: 4/1/2022 3:27:20 AM
! Data: Format (Calibration Info)
! Freq	S11:dB/Ang(F2)	S21:dB/Ang(F2)	S12:dB/Ang(F2)	S22:dB/Ang(F2)
5.00000000000E+08	-1.93971625271E+01	-1.56841786614E+02	-1.52298786587E-01	-7.03107140876E+01	-1.57421052506E-01	-7.02868210153E+01	-1.94508437222E+01	-1.67743342341E+02
5.00248552423E+08	-1.93926833891E+01	-1.56926660818E+02	-1.51260130216E-01	-7.03475680383E+01	-1.57513400513E-01	-7.03130421522E+01	-1.94431539370E+01	-1.67790861467E+02
5.00497228402E+08	-1.93897760304E+01	-1.56958409708E+02	-1.51710491586E-01	-7.03785334346E+01	-1.58011880163E-01	-7.03517919991E+01	-1.94431563483E+01	-1.67800157947E+02
5.00746028000E+08	-1.93849104485E+01	-1.56999375384E+02	-1.52121805162E-01	-7.04141986502E+01	-1.56782254516E-01	-7.03883865354E+01	-1.94372381606E+01	-1.67871308525E+02
5.00994951277E+08	-1.93742895593E+01	-1.57020506724E+02	-1.50877610671E-01	-7.04560786182E+01	-1.58351321661E-01	-7.04128103791E+01	-1.94267146718E+01	-1.67873167047E+02
5.01243998295E+08	-1.93680214082E+01	-1.57091758812E+02	-1.51725571375E-01	-7.04987535460E+01	-1.58393499954E-01	-7.04589387853E+01	-1.94295586542E+01	-1.67922971567E+02
5.01493169115E+08	-1.93599631868E+01	-1.57147535232E+02	-1.51875637586E-01	-7.05357383731E+01	-1.56897435845E-01	-7.04884829182E+01	-1.94209018063E+01	-1.67957030058E+02
5.01742463799E+08	-1.93592349544E+01	-1.57161452941E+02	-1.52885055782E-01	-7.05610722193E+01	-1.58060573532E-01	-7.05259380577E+01	-1.94140114722E+01	-1.68007638615E+02
5.01991882409E+08	-1.93519237134E+01	-1.57207865926E+02	-1.51822352804E-01	-7.05909021058E+01	-1.56821227075E-01	-7.05662010506E+01	-1.94157581734E+01	-1.68047976379E+02
5.02241425007E+08	-1.93474305497E+01	-1.57262017978E+02	-1.51842792563E-01	-7.06343844392E+01	-1.58798210448E-01	-7.05951986727E+01	-1.94068546111E+01	-1.68075307105E+02
5.02491091653E+08	-1.93434615133E+01	-1.57305458927E+02	-1.53012593994E-01	-7.06637651338E+01	-1.58496757530E-01	-7.06361953114E+01	-1.94081198883E+01	-1.68073693152E+02
5.02740882409E+08	-1.93431384493E+01	-1.57306621319E+02	-1.50882479158E-01	-7.06989431969E+01	-1.58651646361E-01	-7.06585102799E+01	-1.94007170793E+01	-1.68150815588E+02
5.02990797338E+08	-1.93307730482E+01	-1.57342385490E+02	-1.51913161310E-01	-7.07403352599E+01	-1.59031879423E-01	-7.07038041128E+01	-1.93944123885E+01	-1.68171258169E+02
5.03240836501E+08	-1.93265253456E+01	-1.57402469495E+02	-1.51967865701E-01	-7.07774201549E+01	-1.59112205337E-01	-7.07336747641E+01	-1.93914322755E+01	-1.68245223944E+02
5.03490999959E+08	-1.93218232813E+01	-1.57468211431E+02	-1.52360461772E-01	-7.08058033205E+01	-1.58894558541E-01	-7.07758912169E+01	-1.93867227616E+01	-1.68265005259E+02
5.03741287775E+08	-1.93131201589E+01	-1.57481638511E+02	-1.52780477193E-01	-7.08474421651E+01	-1.59715720585E-01	-7.08036509469E+01	-1.93801600882E+01	-1.68264135696E+02
5.03991700010E+08	-1.93042326575E+01	-1.57558417211E+02	-1.52776919667E-01	-7.08782556802E+01	-1.60046891004E-01	-7.08408596609E+01	-1.93746845367E+01	-1.68328724746E+02
5.04242236726E+08	-1.93020355383E+01	-1.57589323084E+02	-1.53599940099E-01	-7.09151780179E+01	-1.58211716368E-01	-7.08729585627E+01	-1.93692579551E+01	-1.68376162278E+02
5.04492897985E+08	-1.93014854578E+01	-1.57631358659E+02	-1.53890399648E-01	-7.09530400230E+01	-1.59236874633E-01	-7.09075733839E+01	-1.93611263426E+01	-1.68414469754E+02
5.04743683850E+08	-1.92938356530E+01	-1.57652281105E+02	-1.54408801996E-01	-7.09884637105E+01	-1.59015650466E-01	-7.09493319738E+01	-1.93649616839E+01	-1.68480783234E+02
5.04994594381E+08	-1.92893535611E+01	-1.57674548075E+02	-1.53229106599E-01	-7.10188753213E+01	-1.59287610561E-01	-7.09803853667E+01	-1.93563591264E+01	-1.68514634277E+02
5.05245629641E+08	-1.92819915992E+01	-1.57729927249E+02	-1.53118256001E-01	-7.10543125165E+01	-1.60091312765E-01	-7.10289401499E+01	-1.93553725012E+01	-1.68530745669E+02
5.05496789691E+08	-1.92816313129E+01	-1.57793181685E+02	-1.53607171228E-01	-7.10893117724E+01	-1.60333917468E-01	-7.10568005720E+01	-1.93477444188E+01	-1.68571581177E+02
5.05748074595E+08	-1.92709049071E+01	-1.57850029683E+02	-1.53973644282E-01	-7.11250899755E+01	-1.59493453385E-01	-7.10970239630E+01	-1.93464393285E+01	-1.68570975445E+02
5.05999484413E+08	-1.92656903159E+01	-1.57880240373E+02	-1.54683960456E-01	-7.11691468306E+01	-1.58679467122E-01	-7.11207113749E+01	-1.93380668487E+01	-1.68672890930E+02
5.06251019209E+08	-1.92629537841E+01	-1.57886013400E+02	-1.54281462589E-01	-7.11933342473E+01	-1.58995685550E-01	-7.11586152653E+01	-1.93326771773E+01	-1.68677050195E+02
5.06502679044E+08	-1.92584478628E+01	-1.57930630546E+02	-1.54374518749E-01	-7.12320120887E+01	-1.59440707414E-01	-7.11949861277E+01	-1.93279773935E+01	-1.68731807167E+02
5.06754463980E+08	-1.92542175508E+01	-1.58004799090E+02	-1.54811521913E-01	-7.12681997862E+01	-1.59741601749E-01	-7.12271721851E+01	-1.93225206955E+01	-1.68745411206E+02
5.07006374079E+08	-1.92450111834E+01	-1.58034445939E+02	-1.55461405189E-01	-7.13045957485E+01	-1.60998856541E-01	-7.12660005533E+01	-1.93166193025E+01	-1.68777228679E+02
5.07258409405E+08	-1.92452752893E+01	-1.58085593616E+02	-1.55107412338E-01	-7.13385414400E+01	-1.60015956792E-01	-7.12923405321E+01	-1.93095218001E+01	-1.68828066910E+02
5.07510570018E+08	-1.92303466186E+01	-1.58125965647E+02	-1.54831309736E-01	-7.13739484037E+01	-1.59867421270E-01	-7.13332700397E+01	-1.93020208680E+01	-1.68867228387E+02
5.07762855982E+08	-1.92294690470E+01	-1.58158994869E+02	-1.54907173189E-01	-7.14121513085E+01	-1.60466400912E-01	-7.13683828838E+01	-1.93051203023E+01	-1.68961568573E+02
5.08015267358E+08	-1.92223564186E+01	-1.58185034363E+02	-1.56060138544E-01	-7.14489849431E+01	-1.60483275484E-01	-7.14055760025E+01	-1.92947947210E+01	-1.68933732946E+02
5.08267804209E+08	-1.92172266549E+01	-1.58252526859E+02	-1.55292516529E-01	-7.14830563574E+01	-1.59583835306E-01	-7.14472287603E+01	-1.92940847640E+01	-1.69014675521E+02
5.08520466597E+08	-1.92078323707E+01	-1.58294829596E+02	-1.54851632273E-01	-7.15207643310E+01	-1.59244534068E-01	-7.14757964918E+01	-1.92836887212E+01	-1.69027828254E+02
5.08773254585E+08	-1.92035816112E+01	-1.58348031655E+02	-1.55174442194E-01	-7.15522577826E+01	-1.60251555718E-01	-7.15130603407E+01	-1.92786753813E+01	-1.69079479662E+02
5.09026168235E+08	-1.92044200660E+01	-1.58398746933E+02	-1.55336135550E-01	-7.15934289857E+01	-1.60625190889E-01	-7.15449436847E+01	-1.92707894074E+01	-1.69123015194E+02
5.09279207610E+08	-1.91964204660E+01	-1.58400350964E+02	-1.55342978895E-01	-7.16224251661E+01	-1.62130497353E-01	-7.15885358227E+01	-1.92728815222E+01	-1.69156072120E+02
5.09532372772E+08	-1.91871032833E+01	-1.58455375363E+02	-1.57648654094E-01	-7.16728879685E+01	-1.60902093599E-01	-7.16149838757E+01	-1.92710760677E+01	-1.69175056183E+02
5.09785663784E+08	-1.91834982324E+01	-1.58482988127E+02	-1.56143758146E-01	-7.16938860099E+01	-1.61544655941E-01	-7.16505510211E+01	-1.92585095661E+01	-1.69234472400E+02
5.10039080707E+08	-1.91782417362E+01	-1.58548182233E+02	-1.57186179362E-01	-7.17343451147E+01	-1.61466381760E-01	-7.16954216283E+01	-1.92559093624E+01	-1.69241596285E+02
5.10292623606E+08	-1.91699301654E+01	-1.58619125908E+02	-1.56410651504E-01	-7.17699063680E+01	-1.60457900886E-01	-7.17247492274E+01	-1.92487030678E+01	-1.69327389306E+02
5.10546292542E+08	-1.91641643427E+01	-1.58623182613E+02	-1.58043649995E-01	-7.17986837054E+01	-1.61285024652E-01	-7.17649652872E+01	-1.92438924203E+01	-1.69341867132E+02
5.10800087578E+08	-1.91582370658E+01	-1.58663215356E+02	-1.57014062657E-01	-7.18380499643E+01	-1.60364372634E-01	-7.17956609554E+01	-1.92416869904E+01	-1.69410995781E+02
5.11054008776E+08	-1.91563732246E+01	-1.58730725859E+02	-1.58679599303E-01	-7.18752511278E+01	-1.62358064800E-01	-7.18384450411E+01	-1.92334705135E+01	-1.69415887347E+02
5.11308056201E+08	-1.91500385035E+01	-1.58730221759E+02	-1.56813946665E-01	-7.19041232012E+01	-1.62222269675E-01	-7.18720522655E+01	-1.92247583859E+01	-1.69443604290E+02
5.11562229913E+08	-1.91421315540E+01	-1.58783543706E+02	-1.56908273321E-01	-7.19434294603E+01	-1.61674454538E-01	-7.19108434641E+01	-1.92256974309E+01	-1.69498355841E+02
5.11816529976E+08	-1.91384792671E+01	-1.58823179400E+02	-1.57470327174E-01	-7.19825980334E+01	-1.62591524990E-01	-7.19329044142E+01	-1.92129480311E+01	-1.69536617254E+02
5.12070956453E+08	-1.91350768046E+01	-1.58870452093E+02	-1.57829814742E-01	-7.20109688626E+01	-1.62755936587E-01	-7.19776174684E+01	-1.92118328930E+01	-1.69583054886E+02
5.12325509407E+08	-1.91261901545E+01	-1.58877546987E+02	-1.58140552515E-01	-7.20464956030E+01	-1.62313889732E-01	-7.20193182191E+01	-1.92072099294E+01	-1.69617540104E+02
5.12580188900E+08	-1.91208794248E+01	-1.58924089699E+02	-1.58849694187E-01	-7.20929651092E+01	-1.62237958624E-01	-7.20577576238E+01	-1.91995603036E+01	-1.69639551114E+02
5.12834994996E+08	-1.91170250472E+01	-1.58981286440E+02	-1.56393689640E-01	-7.21201015175E+01	-1.62041523782E-01	-7.20920905631E+01	-1.91919198937E+01	-1.69720948674E+02
5.13089927757E+08	-1.91046960411E+01	-1.59000941578E+02	-1.58854487973E-01	-7.21698989395E+01	-1.61774447655E-01	-7.21206869145E+01	-1.91851458020E+01	-1.69715747762E+02
5.13344987246E+08	-1.90987011296E+01	-1.59015782529E+02	-1.58207023533E-01	-7.21938388490E+01	-1.62642979330E-01	-7.21557306335E+01	-1.91808202868E+01	-1.69798475478E+02
5.13600173527E+08	-1.90995446212E+01	-1.59091318567E+02	-1.58983860220E-01	-7.22340518543E+01	-1.63394769937E-01	-7.21937180741E+01	-1.91823973193E+01	-1.69838197256E+02
5.13855486662E+08	-1.90922714111E+01	-1.59162794892E+02	-1.58825420682E-01	-7.22694562260E+01	-1.62537586759E-01	-7.22374074845E+01	-1.91658870541E+01	-1.69859177002E+02
5.14110926714E+08	-1.90846086368E+01	-1.59176837930E+02	-1.57958435379E-01	-7.23031971425E+01	-1.61970912285E-01	-7.22624119089E+01	-1.91638577723E+01	-1.69902400775E+02
5.14366493747E+08	-1.90826956323E+01	-1.59208395502E+02	-1.58568881541E-01	-7.23447932949E+01	-1.62924244073E-01	-7.23060557249E+01	-1.91599417381E+01	-1.69958273154E+02
5.14622187824E+08	-1.90738367742E+01	-1.59279491804E+02	-1.59399952612E-01	-7.23772797821E+01	-1.62610578352E-01	-7.23388604768E+01	-1.91557778847E+01	-1.69973628692E+02
5.14878009007E+08	-1.90619438673E+01	-1.59284725470E+02	-1.59845697207E-01	-7.24093177363E+01	-1.62688635197E-01	-7.23782952032E+01	-1.91459502021E+01	-1.69994758067E+02
5.15133957360E+08	-1.90608199108E+01	-1.59349357008E+02	-1.59155287650E-01	-7.24490275223E+01	-1.64083974170E-01	-7.24086152626E+01	-1.91400626389E+01	-1.70033400926E+02
5.15390032947E+08	-1.90512663396E+01	-1.59367865843E+02	-1.58348177503E-01	-7.24899875916E+01	-1.63227569991E-01	-7.24386449298E+01	-1.91393938804E+01	-1.70110634614E+02
5.15646235829E+08	-1.90486453093E+01	-1.59438181582E+02	-1.59409164311E-01	-7.25217047833E+01	-1.63843692285E-01	-7.24903317729E+01	-1.91340234435E+01	-1.70116944692E+02
5.15902566072E+08	-1.90423877787E+01	-1.59449447176E+02	-1.60197438614E-01	-7.25581598549E+01	-1.63569711708E-01	-7.25177322924E+01	-1.91341605749E+01	-1.70169574296E+02
5.16159023737E+08	-1.90330959866E+01	-1.59509992348E+02	-1.59273801823E-01	-7.25921825968E+01	-1.64060097457E-01	-7.25603046156E+01	-1.91194995391E+01	-1.70221605494E+02
5.16415608889E+08	-1.90267459554E+01	-1.59535642029E+02	-1.59995581650E-01	-7.26256483838E+01	-1.63522086567E-01	-7.25981338819E+01	-1.91191841253E+01	-1.70269443682E+02
5.16672321591E+08	-1.90227475907E+01	-1.59561451036E+02	-1.59702245050E-01	-7.26617185433E+01	-1.63888859174E-01	-7.26351918766E+01	-1.91047917306E+01	-1.70311338635E+02
5.16929161905E+08	-1.90144517352E+01	-1.59616581062E+02	-1.61221428717E-01	-7.27050401280E+01	-1.63519615012E-01	-7.26585608481E+01	-1.90973534236E+01	-1.70321305374E+02
5.17186129897E+08	-1.90124475856E+01	-1.59641158454E+02	-1.61313627344E-01	-7.27402774957E+01	-1.64335656351E-01	-7.27035745881E+01	-1.90945360905E+01	-1.70357775817E+02
5.17443225628E+08	-1.90037607137E+01	-1.59689573618E+02	-1.59262343197E-01	-7.27691293440E+01	-1.63819833320E-01	-7.27388396347E+01	-1.90884464883E+01	-1.70416153199E+02
5.17700449163E+08	-1.90016686921E+01	-1.59733023714E+02	-1.61053830717E-01	-7.28070163573E+01	-1.64281331005E-01	-7.27771593130E+01	-1.90786640242E+01	-1.70485574215E+02
5.17957800564E+08	-1.89895108598E+01	-1.59755109965E+02	-1.61112273406E-01	-7.28468893629E+01	-1.64037059039E-01	-7.28018719612E+01	-1.90800517043E+01	-1.70506483669E+02
5.18215279897E+08	-1.89868003144E+01	-1.59776581998E+02	-1.61196958241E-01	-7.28752716291E+01	-1.64794962732E-01	-7.28471674423E+01	-1.90714448553E+01	-1.70521082345E+02
5.18472887224E+08	-1.89783248746E+01	-1.59861914984E+02	-1.60090576886E-01	-7.29171793939E+01	-1.65360474314E-01	-7.28780132680E+01	-1.90618893511E+01	-1.70590014735E+02
5.18730622608E+08	-1.89763267956E+01	-1.59889734640E+02	-1.62339260222E-01	-7.29580321101E+01	-1.66287822880E-01	-7.29274900734E+01	-1.90584358642E+01	-1.70579915562E+02
5.18988486114E+08	-1.89677682453E+01	-1.59918597355E+02	-1.61205929453E-01	-7.29953163721E+01	-1.63757390641E-01	-7.29569132003E+01	-1.90516799613E+01	-1.70655283239E+02
5.19246477806E+08	-1.89605294433E+01	-1.59978709966E+02	-1.62019309456E-01	-7.30244136112E+01	-1.64903775751E-01	-7.29926379094E+01	-1.90434065855E+01	-1.70691633415E+02
5.19504597746E+08	-1.89522402732E+01	-1.60028411380E+02	-1.61574603737E-01	-7.30644966123E+01	-1.66461837140E-01	-7.30328682543E+01	-1.90389056335E+01	-1.70747526284E+02
5.19762845999E+08	-1.89522636035E+01	-1.60034264913E+02	-1.61938684602E-01	-7.31015506318E+01	-1.64843993277E-01	-7.30713621299E+01	-1.90323089160E+01	-1.70744008039E+02
5.20021222628E+08	-1.89429941866E+01	-1.60086397828E+02	-1.61779405931E-01	-7.31358175849E+01	-1.65486409434E-01	-7.31032037337E+01	-1.90255212209E+01	-1.70833134364E+02
5.20279727698E+08	-1.89387772114E+01	-1.60146383864E+02	-1.62035388327E-01	-7.31702342868E+01	-1.65775893732E-01	-7.31421199831E+01	-1.90147765078E+01	-1.70852358602E+02
5.20538361271E+08	-1.89290524391E+01	-1.60215191985E+02	-1.61449277228E-01	-7.32134338301E+01	-1.65780928139E-01	-7.31765464816E+01	-1.90150468753E+01	-1.70874850963E+02
5.20797123413E+08	-1.89234810330E+01	-1.60214045717E+02	-1.61988492513E-01	-7.32453601950E+01	-1.65463697145E-01	-7.32041703828E+01	-1.90096840510E+01	-1.70952695708E+02
5.21056014187E+08	-1.89167120484E+01	-1.60230806559E+02	-1.62418095604E-01	-7.32772981448E+01	-1.66032691840E-01	-7.32574865180E+01	-1.89967936527E+01	-1.70985409771E+02
5.21315033656E+08	-1.89130624765E+01	-1.60283313945E+02	-1.63200384460E-01	-7.33130591699E+01	-1.66089741769E-01	-7.32871936757E+01	-1.89954603445E+01	-1.71037338107E+02
5.21574181886E+08	-1.89049975648E+01	-1.60321368166E+02	-1.62216777721E-01	-7.33491378176E+01	-1.67119371677E-01	-7.33221268380E+01	-1.89915394525E+01	-1.71040649729E+02
5.21833458939E+08	-1.88943583935E+01	-1.60359951965E+02	-1.62989560732E-01	-7.33842843580E+01	-1.66546569674E-01	-7.33585570039E+01	-1.89765373747E+01	-1.71060747707E+02
5.22092864880E+08	-1.88929053984E+01	-1.60371556300E+02	-1.63085555922E-01	-7.34287164352E+01	-1.66078358808E-01	-7.33993067172E+01	-1.89714577856E+01	-1.71152148074E+02
5.22352399773E+08	-1.88914385227E+01	-1.60427251282E+02	-1.64685769973E-01	-7.34680112589E+01	-1.67504795839E-01	-7.34353998924E+01	-1.89644722517E+01	-1.71190333841E+02
5.22612063682E+08	-1.88853572886E+01	-1.60433794092E+02	-1.64372706824E-01	-7.34962476466E+01	-1.67539559045E-01	-7.34656072739E+01	-1.89598494526E+01	-1.71250964453E+02
5.22871856671E+08	-1.88738088135E+01	-1.60493826013E+02	-1.63087729707E-01	-7.35383054751E+01	-1.68035968540E-01	-7.35007320126E+01	-1.89519316166E+01	-1.71261980572E+02
5.23131778805E+08	-1.88729909560E+01	-1.60573842908E+02	-1.63891266704E-01	-7.35812912535E+01	-1.67710474434E-01	-7.35412959225E+01	-1.89442197266E+01	-1.71293128752E+02
5.23391830147E+08	-1.88587720490E+01	-1.60574245642E+02	-1.62537207361E-01	-7.36115202666E+01	-1.67166444063E-01	-7.35813563184E+01	-1.89399663988E+01	-1.71318713295E+02
5.23652010762E+08	-1.88542898346E+01	-1.60633629434E+02	-1.63645188375E-01	-7.36479993297E+01	-1.66970911926E-01	-7.36247211802E+01	-1.89309406634E+01	-1.71400954968E+02
5.23912320714E+08	-1.88506013585E+01	-1.60648560373E+02	-1.63599739648E-01	-7.36811214236E+01	-1.67915286734E-01	-7.36539759160E+01	-1.89249551079E+01	-1.71420131527E+02
5.24172760067E+08	-1.88419862544E+01	-1.60653321060E+02	-1.63960357885E-01	-7.37175731845E+01	-1.68631567151E-01	-7.36863646492E+01	-1.89248281477E+01	-1.71472787394E+02
5.24433328886E+08	-1.88391759189E+01	-1.60741745160E+02	-1.64036335360E-01	-7.37527454976E+01	-1.66895325611E-01	-7.37231244563E+01	-1.89149071832E+01	-1.71518154487E+02
5.24694027235E+08	-1.88257844513E+01	-1.60725719426E+02	-1.63386271054E-01	-7.37882909305E+01	-1.68169189446E-01	-7.37702092175E+01	-1.89048296941E+01	-1.71582751656E+02
5.24954855178E+08	-1.88193512004E+01	-1.60794442920E+02	-1.63160797879E-01	-7.38313586589E+01	-1.67954993081E-01	-7.38056996779E+01	-1.89032596169E+01	-1.71603657646E+02
5.25215812781E+08	-1.88126780377E+01	-1.60847887057E+02	-1.64253071582E-01	-7.38651083674E+01	-1.68640933698E-01	-7.38329787981E+01	-1.88992110769E+01	-1.71652398578E+02
5.25476900106E+08	-1.88151964172E+01	-1.60864940819E+02	-1.64058624026E-01	-7.39051786963E+01	-1.68511492892E-01	-7.38759616085E+01	-1.88871524746E+01	-1.71680384971E+02
5.25738117220E+08	-1.88039254769E+01	-1.60904062264E+02	-1.63392470475E-01	-7.39425720306E+01	-1.68981924206E-01	-7.39105072139E+01	-1.88790554661E+01	-1.71715115943E+02
5.25999464185E+08	-1.87998206061E+01	-1.60903897822E+02	-1.63762390892E-01	-7.39746038068E+01	-1.68738973418E-01	-7.39530042724E+01	-1.88715239288E+01	-1.71774929014E+02
5.26260941068E+08	-1.87953530995E+01	-1.60990634287E+02	-1.65403627246E-01	-7.40084081544E+01	-1.68209092911E-01	-7.39841150371E+01	-1.88631742180E+01	-1.71820746038E+02
5.26522547932E+08	-1.87875229211E+01	-1.61023393252E+02	-1.64894211361E-01	-7.40438427299E+01	-1.68660701795E-01	-7.40153266161E+01	-1.88601366365E+01	-1.71858370057E+02
5.26784284841E+08	-1.87802829374E+01	-1.61047427582E+02	-1.66341460266E-01	-7.40832609605E+01	-1.69629766036E-01	-7.40601285229E+01	-1.88497481970E+01	-1.71884636076E+02
5.27046151862E+08	-1.87709471892E+01	-1.61085015260E+02	-1.65195115914E-01	-7.41216733495E+01	-1.68919375892E-01	-7.41001644243E+01	-1.88484291882E+01	-1.71899189522E+02
5.27308149058E+08	-1.87652692934E+01	-1.61100910162E+02	-1.63687365336E-01	-7.41665101538E+01	-1.70216972005E-01	-7.41408312620E+01	-1.88372793944E+01	-1.71973243104E+02
5.27570276494E+08	-1.87613887187E+01	-1.61145604438E+02	-1.65176081067E-01	-7.41920883548E+01	-1.69880252207E-01	-7.41781112031E+01	-1.88367853781E+01	-1.72019296992E+02
5.27832534235E+08	-1.87541430460E+01	-1.61188187201E+02	-1.65189222433E-01	-7.42306205542E+01	-1.70363006400E-01	-7.42131410050E+01	-1.88308512792E+01	-1.72057012705E+02
5.28094922345E+08	-1.87462288226E+01	-1.61206113144E+02	-1.64768907017E-01	-7.42826910023E+01	-1.70494546145E-01	-7.42436749531E+01	-1.88163020417E+01	-1.72079512916E+02
5.28357440890E+08	-1.87445860940E+01	-1.61238250766E+02	-1.63795863324E-01	-7.43012961688E+01	-1.69975091379E-01	-7.42884583610E+01	-1.88131703053E+01	-1.72092023199E+02
5.28620089934E+08	-1.87351460434E+01	-1.61282694896E+02	-1.66003399169E-01	-7.43438344618E+01	-1.70866044447E-01	-7.43170741142E+01	-1.88063153160E+01	-1.72174213030E+02
5.28882869543E+08	-1.87255882577E+01	-1.61301572394E+02	-1.65214421377E-01	-7.43773414498E+01	-1.70769728612E-01	-7.43632621309E+01	-1.87950214690E+01	-1.72210640066E+02
5.29145779780E+08	-1.87251769144E+01	-1.61325130180E+02	-1.66125330473E-01	-7.44104242596E+01	-1.70533444056E-01	-7.43965241036E+01	-1.87885868410E+01	-1.72280951623E+02
5.29408820711E+08	-1.87154761288E+01	-1.61401097936E+02	-1.65418306090E-01	-7.44496502364E+01	-1.71344252964E-01	-7.44313729128E+01	-1.87862246294E+01	-1.72292834766E+02
