# Hz S DB R 50
! CMT, C2409, 19096212, 19.2.3/2
! Date: 4/1/2022 3:23:28 AM
! Data: Format (Calibration Info)
! Freq	S11:dB/Ang(F2)	S21:dB/Ang(F2)	S12:dB/Ang(F2)	S22:dB/Ang(F2)
5.00000000000E+08	-2.97191418827E+01	+8.02180349214E+01	-4.34711704239E+01	+2.98682406648E+01	-4.34745207401E+01	+2.99277659844E+01	-3.23337084855E+01	+8.64701708519E+01
5.00248552423E+08	-2.97079872722E+01	+8.01609838109E+01	-4.34512768226E+01	+2.98613963055E+01	-4.34643174034E+01	+2.99948795587E+01	-3.23284310889E+01	+8.65181248476E+01
5.00497228402E+08	-2.96981704940E+01	+8.01718673755E+01	-4.34570565945E+01	+2.98564928028E+01	-4.34521175908E+01	+2.98633163057E+01	-3.23261099889E+01	+8.65300719780E+01
5.00746028000E+08	-2.96852335310E+01	+8.00966148194E+01	-4.34502557231E+01	+2.97435785655E+01	-4.34592534905E+01	+2.99129361199E+01	-3.23301339288E+01	+8.64328374150E+01
5.00994951277E+08	-2.97018190442E+01	+8.01297341557E+01	-4.34460091654E+01	+2.97575160625E+01	-4.34470581280E+01	+2.99085444987E+01	-3.23350432584E+01	+8.64589255418E+01
5.01243998295E+08	-2.96910901773E+01	+8.01912590983E+01	-4.34344158689E+01	+2.97462057071E+01	-4.34430373883E+01	+2.98065766645E+01	-3.23129429782E+01	+8.64082893355E+01
5.01493169115E+08	-2.96682006562E+01	+8.01757798713E+01	-4.34280771821E+01	+2.96881709863E+01	-4.34343758668E+01	+2.97801640113E+01	-3.23054392200E+01	+8.64497126948E+01
5.01742463799E+08	-2.96699472613E+01	+8.01523964745E+01	-4.34266513458E+01	+2.96958170158E+01	-4.34340141306E+01	+2.97660617386E+01	-3.22961714428E+01	+8.64638509374E+01
5.01991882409E+08	-2.96596908437E+01	+8.01409177158E+01	-4.34207119033E+01	+2.96575615462E+01	-4.34209752307E+01	+2.96907699780E+01	-3.22881422790E+01	+8.64306198418E+01
5.02241425007E+08	-2.96455537475E+01	+8.01177835692E+01	-4.34045105542E+01	+2.95960955296E+01	-4.34203849482E+01	+2.97177306453E+01	-3.22908309496E+01	+8.63241724588E+01
5.02491091653E+08	-2.96480330635E+01	+8.00533746883E+01	-4.34016684387E+01	+2.95561294200E+01	-4.34179303054E+01	+2.96580812162E+01	-3.22818050204E+01	+8.62364292549E+01
5.02740882409E+08	-2.96456791409E+01	+8.00260681211E+01	-4.33924642051E+01	+2.95844691913E+01	-4.34013386306E+01	+2.95889133779E+01	-3.22720607915E+01	+8.62840738175E+01
5.02990797338E+08	-2.96464159316E+01	+8.00853043995E+01	-4.33901286770E+01	+2.95307822442E+01	-4.33926503347E+01	+2.96115822673E+01	-3.22727133895E+01	+8.62697763025E+01
5.03240836501E+08	-2.96354649202E+01	+8.00622838510E+01	-4.33804548076E+01	+2.95300926031E+01	-4.33942045966E+01	+2.95974516927E+01	-3.22600388606E+01	+8.62274337506E+01
5.03490999959E+08	-2.96297439494E+01	+7.99821537349E+01	-4.33729055616E+01	+2.93874297007E+01	-4.33880478809E+01	+2.95732085723E+01	-3.22569294740E+01	+8.62441835236E+01
5.03741287775E+08	-2.96236025965E+01	+7.99890390193E+01	-4.33697485612E+01	+2.93886013416E+01	-4.33645165597E+01	+2.95473898015E+01	-3.22512562697E+01	+8.61889715851E+01
5.03991700010E+08	-2.96157083706E+01	+8.00924612676E+01	-4.33565913716E+01	+2.94067556399E+01	-4.33696460539E+01	+2.94512464565E+01	-3.22389992961E+01	+8.62068535130E+01
5.04242236726E+08	-2.96024621858E+01	+7.99742764836E+01	-4.33610773560E+01	+2.92851034687E+01	-4.33636821595E+01	+2.94923288902E+01	-3.22281074676E+01	+8.62640082531E+01
5.04492897985E+08	-2.96024912072E+01	+7.99364152174E+01	-4.33474642029E+01	+2.93013588937E+01	-4.33570456649E+01	+2.94499136617E+01	-3.22057002508E+01	+8.60961475881E+01
5.04743683850E+08	-2.96025875111E+01	+7.99632654116E+01	-4.33439889764E+01	+2.92383449192E+01	-4.33534188921E+01	+2.93943035114E+01	-3.22210439276E+01	+8.59964531171E+01
5.04994594381E+08	-2.95978712412E+01	+7.99640164950E+01	-4.33399533270E+01	+2.92936309236E+01	-4.33534467377E+01	+2.93381129627E+01	-3.22090655207E+01	+8.60729749142E+01
5.05245629641E+08	-2.95947805466E+01	+7.99272133146E+01	-4.33297080915E+01	+2.92896115233E+01	-4.33408636160E+01	+2.93551604168E+01	-3.22108767439E+01	+8.60608226387E+01
5.05496789691E+08	-2.95696747884E+01	+7.98747507809E+01	-4.33218164055E+01	+2.91906821984E+01	-4.33326929673E+01	+2.92731284204E+01	-3.22010061227E+01	+8.59991766838E+01
5.05748074595E+08	-2.95746157089E+01	+7.99429749066E+01	-4.33282978645E+01	+2.91799711075E+01	-4.33311140858E+01	+2.92483850474E+01	-3.21912517660E+01	+8.59563451072E+01
5.05999484413E+08	-2.95638706791E+01	+7.99050859190E+01	-4.33193421808E+01	+2.91320325658E+01	-4.33266133293E+01	+2.92288162994E+01	-3.21858722802E+01	+8.60292938297E+01
5.06251019209E+08	-2.95626479913E+01	+7.98736027024E+01	-4.33111194621E+01	+2.91075923026E+01	-4.33172920222E+01	+2.91742202200E+01	-3.21910634922E+01	+8.59225507313E+01
5.06502679044E+08	-2.95578149625E+01	+7.98453224836E+01	-4.33008297748E+01	+2.90461114314E+01	-4.33142423814E+01	+2.92042005168E+01	-3.21835737656E+01	+8.58782031223E+01
5.06754463980E+08	-2.95497533936E+01	+7.98465359267E+01	-4.32898287000E+01	+2.90204244215E+01	-4.33002092114E+01	+2.91623920423E+01	-3.21717579807E+01	+8.58687382595E+01
5.07006374079E+08	-2.95567777251E+01	+7.99149064034E+01	-4.32824940018E+01	+2.90249011375E+01	-4.33029645921E+01	+2.90982125683E+01	-3.21550146251E+01	+8.60133132109E+01
5.07258409405E+08	-2.95422363009E+01	+7.97991081268E+01	-4.32842381961E+01	+2.89458645954E+01	-4.32893734497E+01	+2.90653709388E+01	-3.21592500018E+01	+8.58534062920E+01
5.07510570018E+08	-2.95293955698E+01	+7.98636346497E+01	-4.32738521175E+01	+2.88939481174E+01	-4.32781236642E+01	+2.91048595235E+01	-3.21631713289E+01	+8.59092704310E+01
5.07762855982E+08	-2.95310770874E+01	+7.98431590317E+01	-4.32649939660E+01	+2.89247034439E+01	-4.32751653525E+01	+2.90555347075E+01	-3.21367166994E+01	+8.57932906838E+01
5.08015267358E+08	-2.95239490588E+01	+7.97995890394E+01	-4.32658122294E+01	+2.88496860954E+01	-4.32669341259E+01	+2.89886395670E+01	-3.21322625293E+01	+8.57827309146E+01
5.08267804209E+08	-2.95198743569E+01	+7.98403924136E+01	-4.32554714098E+01	+2.88844485897E+01	-4.32675314591E+01	+2.89079624618E+01	-3.21322596102E+01	+8.57065260105E+01
5.08520466597E+08	-2.95165125669E+01	+7.98326858029E+01	-4.32501763656E+01	+2.88157072891E+01	-4.32584156666E+01	+2.89341956981E+01	-3.21254329286E+01	+8.57627256352E+01
5.08773254585E+08	-2.95041619497E+01	+7.98589200299E+01	-4.32410131454E+01	+2.87720024604E+01	-4.32528566493E+01	+2.89153048666E+01	-3.21225688642E+01	+8.57553471034E+01
5.09026168235E+08	-2.94900751419E+01	+7.98031526114E+01	-4.32378815126E+01	+2.87827886896E+01	-4.32456914366E+01	+2.88944859999E+01	-3.21096202515E+01	+8.58671090494E+01
5.09279207610E+08	-2.94936684765E+01	+7.97836903352E+01	-4.32320345318E+01	+2.86862749620E+01	-4.32436680074E+01	+2.88275811786E+01	-3.21082056313E+01	+8.57737732109E+01
5.09532372772E+08	-2.94911011975E+01	+7.98135949525E+01	-4.32252806628E+01	+2.86519865793E+01	-4.32372742158E+01	+2.87474233723E+01	-3.21116887784E+01	+8.55849120137E+01
5.09785663784E+08	-2.94801711516E+01	+7.98219488144E+01	-4.32190577767E+01	+2.86332137723E+01	-4.32115904576E+01	+2.87560735413E+01	-3.20921828770E+01	+8.56532107344E+01
5.10039080707E+08	-2.94727129035E+01	+7.97681598909E+01	-4.32055745276E+01	+2.86070554827E+01	-4.32250117117E+01	+2.87097595405E+01	-3.20970940300E+01	+8.56957318262E+01
5.10292623606E+08	-2.94546407066E+01	+7.97794073635E+01	-4.32066595335E+01	+2.86460986057E+01	-4.32081510270E+01	+2.87142574284E+01	-3.20793132036E+01	+8.56965350461E+01
5.10546292542E+08	-2.94631397121E+01	+7.97185497070E+01	-4.32000252787E+01	+2.85162218258E+01	-4.32061448482E+01	+2.86384094847E+01	-3.20541045627E+01	+8.56169141803E+01
5.10800087578E+08	-2.94599813125E+01	+7.97581741347E+01	-4.31941567224E+01	+2.85063508320E+01	-4.32050244885E+01	+2.86697563233E+01	-3.20629803293E+01	+8.55817118969E+01
5.11054008776E+08	-2.94456190095E+01	+7.96779577584E+01	-4.31811082308E+01	+2.85013960428E+01	-4.31990190582E+01	+2.86115916228E+01	-3.20605299532E+01	+8.55501970026E+01
5.11308056201E+08	-2.94410647299E+01	+7.96477452475E+01	-4.31789613941E+01	+2.84725069652E+01	-4.31880044784E+01	+2.85017903329E+01	-3.20494253436E+01	+8.55631076644E+01
5.11562229913E+08	-2.94378784031E+01	+7.97663851722E+01	-4.31682735247E+01	+2.84531591519E+01	-4.31872442484E+01	+2.85810668320E+01	-3.20429325912E+01	+8.54702816218E+01
5.11816529976E+08	-2.94357444275E+01	+7.97324949518E+01	-4.31606782801E+01	+2.83776312633E+01	-4.31712354293E+01	+2.86138691533E+01	-3.20425498059E+01	+8.55202113804E+01
5.12070956453E+08	-2.94251661635E+01	+7.96878496986E+01	-4.31641089296E+01	+2.84128672022E+01	-4.31771964019E+01	+2.84963534764E+01	-3.20342927363E+01	+8.55788818170E+01
5.12325509407E+08	-2.94330105390E+01	+7.97245782584E+01	-4.31429570944E+01	+2.83322088327E+01	-4.31598491548E+01	+2.84246104354E+01	-3.20255643449E+01	+8.55063210664E+01
5.12580188900E+08	-2.94197086092E+01	+7.97067324493E+01	-4.31459747024E+01	+2.83227958745E+01	-4.31636145718E+01	+2.84237598554E+01	-3.20238329837E+01	+8.54685690620E+01
5.12834994996E+08	-2.94088471921E+01	+7.96615653352E+01	-4.31364831970E+01	+2.82818241883E+01	-4.31494566142E+01	+2.84485189251E+01	-3.20077646571E+01	+8.54742047340E+01
5.13089927757E+08	-2.94027592987E+01	+7.97324554312E+01	-4.31297460272E+01	+2.82973177808E+01	-4.31432109509E+01	+2.83526497389E+01	-3.20137449329E+01	+8.55009512159E+01
5.13344987246E+08	-2.94090052795E+01	+7.97303861982E+01	-4.31369961784E+01	+2.82184019071E+01	-4.31353586112E+01	+2.84303617893E+01	-3.19888586483E+01	+8.54862533031E+01
5.13600173527E+08	-2.94008004070E+01	+7.96416066896E+01	-4.31240232019E+01	+2.81299633804E+01	-4.31315940342E+01	+2.83558720208E+01	-3.19807196354E+01	+8.53943693931E+01
5.13855486662E+08	-2.93910802574E+01	+7.96455642011E+01	-4.31148568826E+01	+2.82207065473E+01	-4.31303008048E+01	+2.82655373599E+01	-3.19847696155E+01	+8.55140962097E+01
5.14110926714E+08	-2.93888724640E+01	+7.96276176273E+01	-4.31070853724E+01	+2.81490599270E+01	-4.31163830934E+01	+2.82426662319E+01	-3.19865812016E+01	+8.54212401715E+01
5.14366493747E+08	-2.93745353714E+01	+7.96332721004E+01	-4.30968599052E+01	+2.80944062253E+01	-4.31190391908E+01	+2.82823661717E+01	-3.19733283263E+01	+8.53968245811E+01
5.14622187824E+08	-2.93665251934E+01	+7.96404939086E+01	-4.30932514580E+01	+2.81021265745E+01	-4.31124690362E+01	+2.81939607273E+01	-3.19635869448E+01	+8.53582004961E+01
5.14878009007E+08	-2.93718022943E+01	+7.97514660628E+01	-4.30808438926E+01	+2.80600370486E+01	-4.31084238223E+01	+2.80936563349E+01	-3.19636673484E+01	+8.53869077444E+01
5.15133957360E+08	-2.93607198792E+01	+7.96255189378E+01	-4.30877815991E+01	+2.80618913264E+01	-4.30991375534E+01	+2.81995207059E+01	-3.19600699336E+01	+8.54979003067E+01
5.15390032947E+08	-2.93558006150E+01	+7.97001405505E+01	-4.30823770666E+01	+2.79637087142E+01	-4.30842134185E+01	+2.80440030055E+01	-3.19385208708E+01	+8.53215805616E+01
5.15646235829E+08	-2.93593677231E+01	+7.96834400314E+01	-4.30696846541E+01	+2.79544498421E+01	-4.30789605916E+01	+2.80204127194E+01	-3.19381499860E+01	+8.52482519716E+01
5.15902566072E+08	-2.93446965735E+01	+7.95913743378E+01	-4.30658637269E+01	+2.79492594195E+01	-4.30679227864E+01	+2.80381584751E+01	-3.19383457609E+01	+8.52281838657E+01
5.16159023737E+08	-2.93383673956E+01	+7.96316339269E+01	-4.30539532855E+01	+2.79056492970E+01	-4.30658750052E+01	+2.79947184630E+01	-3.19147800275E+01	+8.52930241659E+01
5.16415608889E+08	-2.93322544178E+01	+7.96849250836E+01	-4.30484014438E+01	+2.79071929267E+01	-4.30674036403E+01	+2.79713578704E+01	-3.19169077344E+01	+8.52265667672E+01
5.16672321591E+08	-2.93239593627E+01	+7.96018302333E+01	-4.30390988956E+01	+2.79459848089E+01	-4.30521790703E+01	+2.79561278881E+01	-3.19107525315E+01	+8.52531337113E+01
5.16929161905E+08	-2.93313133184E+01	+7.96445092250E+01	-4.30480549543E+01	+2.78080909512E+01	-4.30581731017E+01	+2.79566138917E+01	-3.19037942077E+01	+8.53481643769E+01
5.17186129897E+08	-2.93284970674E+01	+7.95971554070E+01	-4.30277856647E+01	+2.77996473228E+01	-4.30396549896E+01	+2.79278539684E+01	-3.18926963660E+01	+8.52921588017E+01
5.17443225628E+08	-2.93095548467E+01	+7.95817582179E+01	-4.30273574073E+01	+2.78047912488E+01	-4.30408971662E+01	+2.78103403926E+01	-3.18993203508E+01	+8.52877992608E+01
5.17700449163E+08	-2.93083971722E+01	+7.95784461933E+01	-4.30235978198E+01	+2.77527454143E+01	-4.30328797626E+01	+2.78172956211E+01	-3.18787935509E+01	+8.52542250393E+01
5.17957800564E+08	-2.92927006463E+01	+7.96496741099E+01	-4.30120395600E+01	+2.77196337196E+01	-4.30259174216E+01	+2.78164081028E+01	-3.18724534801E+01	+8.51100267836E+01
5.18215279897E+08	-2.93036008007E+01	+7.96001940012E+01	-4.30076975009E+01	+2.77062354879E+01	-4.30179448457E+01	+2.77475187497E+01	-3.18695319100E+01	+8.52108972268E+01
5.18472887224E+08	-2.92902522706E+01	+7.96533615026E+01	-4.29925290666E+01	+2.76603581285E+01	-4.30121205467E+01	+2.77312795209E+01	-3.18772440535E+01	+8.52156930973E+01
5.18730622608E+08	-2.92849390884E+01	+7.95885748432E+01	-4.29905954692E+01	+2.76116280863E+01	-4.30102225005E+01	+2.76723685444E+01	-3.18720493825E+01	+8.51579340581E+01
5.18988486114E+08	-2.92849277794E+01	+7.96250462601E+01	-4.29878436138E+01	+2.76580859001E+01	-4.29898296388E+01	+2.77159966453E+01	-3.18584331247E+01	+8.53049703418E+01
5.19246477806E+08	-2.92714925499E+01	+7.96130793305E+01	-4.29771526715E+01	+2.76016952372E+01	-4.29806536336E+01	+2.75970702674E+01	-3.18479120216E+01	+8.51792237966E+01
5.19504597746E+08	-2.92779860236E+01	+7.96347749026E+01	-4.29672674160E+01	+2.75501217501E+01	-4.29917562783E+01	+2.76380883457E+01	-3.18402433318E+01	+8.51766466184E+01
5.19762845999E+08	-2.92733668263E+01	+7.95821535365E+01	-4.29604636829E+01	+2.75089125865E+01	-4.29738952169E+01	+2.75911337976E+01	-3.18473014168E+01	+8.51268676801E+01
5.20021222628E+08	-2.92609593974E+01	+7.96101263431E+01	-4.29603534283E+01	+2.74643584074E+01	-4.29656931299E+01	+2.75392998797E+01	-3.18241496978E+01	+8.50935066337E+01
5.20279727698E+08	-2.92635160949E+01	+7.95531383696E+01	-4.29383658088E+01	+2.74357803603E+01	-4.29573629924E+01	+2.75621855684E+01	-3.18197581877E+01	+8.52061335415E+01
5.20538361271E+08	-2.92579935808E+01	+7.95978469159E+01	-4.29479167980E+01	+2.74271095901E+01	-4.29638747094E+01	+2.74484960450E+01	-3.18315075345E+01	+8.51266047380E+01
5.20797123413E+08	-2.92538619144E+01	+7.95144341711E+01	-4.29415104854E+01	+2.74459199297E+01	-4.29502702344E+01	+2.74431796493E+01	-3.18152518366E+01	+8.51469460624E+01
5.21056014187E+08	-2.92425515855E+01	+7.95526402608E+01	-4.29394394042E+01	+2.73518357517E+01	-4.29482445096E+01	+2.74233840304E+01	-3.18024644514E+01	+8.51737443094E+01
5.21315033656E+08	-2.92495106113E+01	+7.95515096542E+01	-4.29336189928E+01	+2.73553665438E+01	-4.29351797521E+01	+2.73486735186E+01	-3.17942589230E+01	+8.51658862469E+01
5.21574181886E+08	-2.92375588867E+01	+7.95323062005E+01	-4.29169581717E+01	+2.73334853764E+01	-4.29377203690E+01	+2.73374552812E+01	-3.18065286259E+01	+8.51056474824E+01
5.21833458939E+08	-2.92259134375E+01	+7.95671195278E+01	-4.29167940338E+01	+2.73307097925E+01	-4.29200055787E+01	+2.73089780176E+01	-3.17899781828E+01	+8.51577860254E+01
5.22092864880E+08	-2.92414616406E+01	+7.95313008908E+01	-4.29028225990E+01	+2.72665266518E+01	-4.29190710300E+01	+2.72437832561E+01	-3.17810741384E+01	+8.50817092702E+01
5.22352399773E+08	-2.92186845466E+01	+7.95081397498E+01	-4.29059566166E+01	+2.72167032598E+01	-4.29160695813E+01	+2.72253749082E+01	-3.17768696911E+01	+8.50674719016E+01
5.22612063682E+08	-2.92276403031E+01	+7.94510421302E+01	-4.28988401801E+01	+2.71802334270E+01	-4.28984455455E+01	+2.72300942706E+01	-3.17657813020E+01	+8.51610708306E+01
5.22871856671E+08	-2.92126448188E+01	+7.95123379460E+01	-4.28904343964E+01	+2.71030667199E+01	-4.28935955471E+01	+2.72189738945E+01	-3.17698569296E+01	+8.51657717083E+01
5.23131778805E+08	-2.92086147324E+01	+7.95161937937E+01	-4.28831318075E+01	+2.70876180968E+01	-4.28906311411E+01	+2.70798934957E+01	-3.17554226015E+01	+8.50910169825E+01
5.23391830147E+08	-2.92139745437E+01	+7.95211390711E+01	-4.28838987914E+01	+2.70782004466E+01	-4.28903781867E+01	+2.71486617729E+01	-3.17556308736E+01	+8.51103567538E+01
5.23652010762E+08	-2.92032569503E+01	+7.94989313729E+01	-4.28671073526E+01	+2.70697448778E+01	-4.28824081412E+01	+2.70702168092E+01	-3.17400153226E+01	+8.50967355304E+01
5.23912320714E+08	-2.91898853941E+01	+7.94601520397E+01	-4.28619504415E+01	+2.70275633286E+01	-4.28711701484E+01	+2.70030723122E+01	-3.17402590872E+01	+8.50550628950E+01
5.24172760067E+08	-2.91976344847E+01	+7.95086478543E+01	-4.28598564260E+01	+2.69839453697E+01	-4.28738566610E+01	+2.69772961591E+01	-3.17425498675E+01	+8.50886422765E+01
5.24433328886E+08	-2.91791483746E+01	+7.94385571170E+01	-4.28523911844E+01	+2.69420195080E+01	-4.28547521636E+01	+2.70434415504E+01	-3.17189987507E+01	+8.50779886873E+01
5.24694027235E+08	-2.91985590348E+01	+7.96081128689E+01	-4.28395749481E+01	+2.69645784751E+01	-4.28437175085E+01	+2.69835120324E+01	-3.17090789202E+01	+8.50399472689E+01
5.24954855178E+08	-2.91849517834E+01	+7.95513423759E+01	-4.28373408952E+01	+2.69281526088E+01	-4.28442520947E+01	+2.69164916390E+01	-3.17273322381E+01	+8.50424495438E+01
5.25215812781E+08	-2.91771675175E+01	+7.95415247361E+01	-4.28298773218E+01	+2.68606900991E+01	-4.28418789536E+01	+2.68773946161E+01	-3.17177500233E+01	+8.49173929727E+01
5.25476900106E+08	-2.91845220550E+01	+7.94620170487E+01	-4.28179014403E+01	+2.68312119967E+01	-4.28281854147E+01	+2.68454384732E+01	-3.17043740760E+01	+8.50428567821E+01
5.25738117220E+08	-2.91687470007E+01	+7.94881389991E+01	-4.28147531615E+01	+2.68289837907E+01	-4.28358745506E+01	+2.68965807086E+01	-3.17006323357E+01	+8.50033799739E+01
5.25999464185E+08	-2.91704190062E+01	+7.94688097953E+01	-4.28117043403E+01	+2.68277098946E+01	-4.28234227885E+01	+2.68457767184E+01	-3.16970246259E+01	+8.50423901151E+01
5.26260941068E+08	-2.91539145017E+01	+7.94857032509E+01	-4.28002550259E+01	+2.67768737825E+01	-4.28170491298E+01	+2.67909266541E+01	-3.16948675308E+01	+8.50528465443E+01
5.26522547932E+08	-2.91452754399E+01	+7.94750193057E+01	-4.28032245515E+01	+2.66550288219E+01	-4.28147119350E+01	+2.67052435398E+01	-3.16948849830E+01	+8.49645030027E+01
5.26784284841E+08	-2.91589016525E+01	+7.94862018235E+01	-4.27976878745E+01	+2.67013396557E+01	-4.28057212595E+01	+2.67473894921E+01	-3.16798785142E+01	+8.49918721429E+01
5.27046151862E+08	-2.91516154708E+01	+7.95154824182E+01	-4.27872460973E+01	+2.66271546295E+01	-4.27872216154E+01	+2.66203565214E+01	-3.16844351912E+01	+8.49865848192E+01
5.27308149058E+08	-2.91451300219E+01	+7.95229265285E+01	-4.27762996339E+01	+2.66671608042E+01	-4.27875617443E+01	+2.66830820748E+01	-3.16690180741E+01	+8.50295780069E+01
5.27570276494E+08	-2.91420135978E+01	+7.94462640101E+01	-4.27808975159E+01	+2.65695239617E+01	-4.27833551530E+01	+2.66000020814E+01	-3.16587366591E+01	+8.49396134397E+01
5.27832534235E+08	-2.91414610496E+01	+7.94636779171E+01	-4.27671165036E+01	+2.65866705005E+01	-4.27762506963E+01	+2.66330115485E+01	-3.16602481875E+01	+8.49297219964E+01
5.28094922345E+08	-2.91365014248E+01	+7.94428115108E+01	-4.27571089569E+01	+2.64797227577E+01	-4.27693375986E+01	+2.65272683135E+01	-3.16611464523E+01	+8.49668404136E+01
5.28357440890E+08	-2.91303259616E+01	+7.94418901135E+01	-4.27540358846E+01	+2.64686126989E+01	-4.27674099148E+01	+2.65237546142E+01	-3.16521137754E+01	+8.50342656225E+01
5.28620089934E+08	-2.91384012659E+01	+7.94563753800E+01	-4.27422546104E+01	+2.64847534750E+01	-4.27519247123E+01	+2.64679178211E+01	-3.16495603230E+01	+8.49547755416E+01
5.28882869543E+08	-2.91333274142E+01	+7.94754306057E+01	-4.27386147118E+01	+2.63791971530E+01	-4.27479476833E+01	+2.64219335757E+01	-3.16363170396E+01	+8.50081596529E+01
5.29145779780E+08	-2.91197543969E+01	+7.94385578308E+01	-4.27355632671E+01	+2.63863035167E+01	-4.27394900400E+01	+2.64566420480E+01	-3.16273035164E+01	+8.49158991052E+01
5.29408820711E+08	-2.91116232401E+01	+7.93937139998E+01	-4.27229646574E+01	+2.63605803087E+01	-4.27319660097E+01	+2.64221948674E+01	-3.16333180536E+01	+8.50028927372E+01
