# Hz S DB R 50
! CMT, C2409, 19096212, 19.2.3/2
! Date: 4/1/2022 3:30:12 AM
! Data: Format (Calibration Info)
! Freq	S11:dB/Ang(F2)	S21:dB/Ang(F2)	S12:dB/Ang(F2)	S22:dB/Ang(F2)
5.00000000000E+08	-3.59292827497E+01	-1.60809973627E+02	-8.21249511416E-02	-5.56455576643E+01	-8.44687318686E-02	-5.56400958183E+01	-3.61632539590E+01	-1.41725462578E+02
5.00248552423E+08	-3.59091185282E+01	-1.61098745258E+02	-8.17383928950E-02	-5.56683059826E+01	-8.41665784395E-02	-5.56638644393E+01	-3.61151977240E+01	-1.41893818535E+02
5.00497228402E+08	-3.59086318606E+01	-1.61255349321E+02	-8.11876593912E-02	-5.56946958055E+01	-8.45264496830E-02	-5.56899732683E+01	-3.61431205316E+01	-1.41564219955E+02
5.00746028000E+08	-3.58987086877E+01	-1.61113515328E+02	-8.20306666404E-02	-5.57235707321E+01	-8.34871802711E-02	-5.57138858401E+01	-3.61352849947E+01	-1.41823451630E+02
5.00994951277E+08	-3.58798780968E+01	-1.61133635047E+02	-8.03178315466E-02	-5.57649655332E+01	-8.37727870856E-02	-5.57398232012E+01	-3.61141374278E+01	-1.41785391383E+02
5.01243998295E+08	-3.58243724189E+01	-1.61324056950E+02	-8.22940950043E-02	-5.57806433099E+01	-8.49762974429E-02	-5.57733093835E+01	-3.61430174829E+01	-1.41780679157E+02
5.01493169115E+08	-3.58274961589E+01	-1.61520957169E+02	-8.12805100514E-02	-5.58168914294E+01	-8.39586926500E-02	-5.57956099007E+01	-3.61151595138E+01	-1.41800417329E+02
5.01742463799E+08	-3.58377566289E+01	-1.61318030574E+02	-8.13154296970E-02	-5.58394706618E+01	-8.44343169195E-02	-5.58207633418E+01	-3.60978170833E+01	-1.41765606013E+02
5.01991882409E+08	-3.57920033506E+01	-1.61478618053E+02	-8.13794912291E-02	-5.58662637885E+01	-8.48311289219E-02	-5.58648779149E+01	-3.61272458401E+01	-1.41842058226E+02
5.02241425007E+08	-3.57908098733E+01	-1.61733918672E+02	-8.14144583580E-02	-5.58897651471E+01	-8.44301434846E-02	-5.58816456834E+01	-3.61170982803E+01	-1.41867130015E+02
5.02491091653E+08	-3.57888347055E+01	-1.61755871770E+02	-8.23966781144E-02	-5.59236632088E+01	-8.58628536559E-02	-5.59125151743E+01	-3.61339682605E+01	-1.41564335455E+02
5.02740882409E+08	-3.58146439010E+01	-1.61645644088E+02	-8.07104996869E-02	-5.59452027567E+01	-8.50845403324E-02	-5.59330046205E+01	-3.60948466406E+01	-1.42006105679E+02
5.02990797338E+08	-3.57717333497E+01	-1.61729122105E+02	-8.12449108016E-02	-5.59803707266E+01	-8.54915756072E-02	-5.59699741448E+01	-3.60858149233E+01	-1.41637578999E+02
5.03240836501E+08	-3.57773980970E+01	-1.61857460516E+02	-8.17089561380E-02	-5.60092989419E+01	-8.52233233894E-02	-5.59892563920E+01	-3.61006055335E+01	-1.42006465289E+02
5.03490999959E+08	-3.57665537775E+01	-1.62009238633E+02	-8.08818934323E-02	-5.60345168940E+01	-8.48045123097E-02	-5.60211356589E+01	-3.61120570030E+01	-1.41977631299E+02
5.03741287775E+08	-3.57168162364E+01	-1.61875403171E+02	-8.11162199678E-02	-5.60622216290E+01	-8.55598796934E-02	-5.60527675276E+01	-3.60992382962E+01	-1.42073371013E+02
5.03991700010E+08	-3.56843432727E+01	-1.62164791652E+02	-8.30319020718E-02	-5.60924623959E+01	-8.60526928156E-02	-5.60758622787E+01	-3.60784527839E+01	-1.41938952430E+02
5.04242236726E+08	-3.56913104443E+01	-1.62179588914E+02	-8.23245350035E-02	-5.61166658679E+01	-8.47019982754E-02	-5.61011283336E+01	-3.60906857784E+01	-1.42019984174E+02
5.04492897985E+08	-3.56885795545E+01	-1.62209878550E+02	-8.26014456942E-02	-5.61511440400E+01	-8.59345885409E-02	-5.61316622600E+01	-3.60580278593E+01	-1.42011609443E+02
5.04743683850E+08	-3.56806674000E+01	-1.62255049686E+02	-8.25721249771E-02	-5.61756268599E+01	-8.49859094992E-02	-5.61616703711E+01	-3.61007159517E+01	-1.42277241475E+02
5.04994594381E+08	-3.56735128222E+01	-1.62193250015E+02	-8.06718259330E-02	-5.62024316859E+01	-8.62371039351E-02	-5.61922616076E+01	-3.60954282954E+01	-1.42224438240E+02
5.05245629641E+08	-3.56646169902E+01	-1.62351959100E+02	-8.30095148453E-02	-5.62275659922E+01	-8.64705599357E-02	-5.62176959610E+01	-3.60911182227E+01	-1.41960709189E+02
5.05496789691E+08	-3.56543052828E+01	-1.62645224733E+02	-8.15045871409E-02	-5.62591670232E+01	-8.63891518467E-02	-5.62471161250E+01	-3.60660623778E+01	-1.42176036919E+02
5.05748074595E+08	-3.56195953733E+01	-1.62752152014E+02	-8.22153005685E-02	-5.62908617888E+01	-8.53357975160E-02	-5.62744590328E+01	-3.60839569067E+01	-1.41907737678E+02
5.05999484413E+08	-3.56234152231E+01	-1.62747510606E+02	-8.28412525300E-02	-5.63190534632E+01	-8.43434415673E-02	-5.62995644779E+01	-3.60523657743E+01	-1.42174431778E+02
5.06251019209E+08	-3.56257620051E+01	-1.62766435845E+02	-8.23451879911E-02	-5.63450157719E+01	-8.63860833382E-02	-5.63328425684E+01	-3.60568622476E+01	-1.42327109598E+02
5.06502679044E+08	-3.55895015090E+01	-1.62741780059E+02	-8.29547812598E-02	-5.63620220359E+01	-8.47620926489E-02	-5.63557899214E+01	-3.60669154218E+01	-1.42451059752E+02
5.06754463980E+08	-3.55949375950E+01	-1.62932538292E+02	-8.30486383979E-02	-5.63978197904E+01	-8.60285190958E-02	-5.63781139019E+01	-3.60336021571E+01	-1.42427714331E+02
5.07006374079E+08	-3.55655461096E+01	-1.62812788948E+02	-8.38216422076E-02	-5.64187073468E+01	-8.65068470852E-02	-5.64150079868E+01	-3.60261983280E+01	-1.42237797922E+02
5.07258409405E+08	-3.55768020029E+01	-1.63085982164E+02	-8.15699508809E-02	-5.64553507934E+01	-8.62537427981E-02	-5.64316001994E+01	-3.60316169172E+01	-1.42369364862E+02
5.07510570018E+08	-3.55464013957E+01	-1.63068146434E+02	-8.38712938549E-02	-5.64872403447E+01	-8.57242152144E-02	-5.64631351479E+01	-3.60081695371E+01	-1.42315024229E+02
5.07762855982E+08	-3.55103430491E+01	-1.63124328014E+02	-8.31366697249E-02	-5.65110889328E+01	-8.55021627712E-02	-5.64923452756E+01	-3.60445783353E+01	-1.42610589123E+02
5.08015267358E+08	-3.55246223343E+01	-1.63025360877E+02	-8.35402240118E-02	-5.65428078616E+01	-8.57041163999E-02	-5.65260222758E+01	-3.60114048439E+01	-1.42298670735E+02
5.08267804209E+08	-3.54932694811E+01	-1.63139536893E+02	-8.31179227357E-02	-5.65671682777E+01	-8.58465951720E-02	-5.65557387174E+01	-3.60439563047E+01	-1.42546894476E+02
5.08520466597E+08	-3.54618090336E+01	-1.63352883590E+02	-8.34204360212E-02	-5.65981050175E+01	-8.60638052694E-02	-5.65875027368E+01	-3.60248970959E+01	-1.42456816372E+02
5.08773254585E+08	-3.54703256584E+01	-1.63447763432E+02	-8.38563731808E-02	-5.66244534634E+01	-8.56025466417E-02	-5.66023151471E+01	-3.59919518718E+01	-1.42601649383E+02
5.09026168235E+08	-3.54653010508E+01	-1.63677141289E+02	-8.19764368758E-02	-5.66471944304E+01	-8.64088912486E-02	-5.66429863124E+01	-3.59837937437E+01	-1.42736152511E+02
5.09279207610E+08	-3.54450506092E+01	-1.63447614641E+02	-8.28991612395E-02	-5.66784339106E+01	-8.74965203118E-02	-5.66673257468E+01	-3.60110591946E+01	-1.42699681076E+02
5.09532372772E+08	-3.54020148466E+01	-1.63517070011E+02	-8.39649687246E-02	-5.67112326192E+01	-8.66124671714E-02	-5.66918174659E+01	-3.60015322210E+01	-1.42538277481E+02
5.09785663784E+08	-3.54064877915E+01	-1.63676539468E+02	-8.38712971825E-02	-5.67348858980E+01	-8.62218003293E-02	-5.67185953579E+01	-3.59718847930E+01	-1.42782025874E+02
5.10039080707E+08	-3.53981092633E+01	-1.63843751194E+02	-8.32935322228E-02	-5.67743146263E+01	-8.53123204054E-02	-5.67559387569E+01	-3.59814500013E+01	-1.42492316864E+02
5.10292623606E+08	-3.53422345193E+01	-1.63865352286E+02	-8.34102679269E-02	-5.68011591383E+01	-8.65428072075E-02	-5.67777170831E+01	-3.59711067209E+01	-1.42861426016E+02
5.10546292542E+08	-3.53619069554E+01	-1.63932737392E+02	-8.45708736218E-02	-5.68264142416E+01	-8.65639428554E-02	-5.68085620270E+01	-3.59602274152E+01	-1.42926919865E+02
5.10800087578E+08	-3.53166345524E+01	-1.63834737366E+02	-8.44676250313E-02	-5.68444411249E+01	-8.51059902656E-02	-5.68336748528E+01	-3.59652885781E+01	-1.42994165434E+02
5.11054008776E+08	-3.53418644803E+01	-1.64145684680E+02	-8.53335484571E-02	-5.68871814635E+01	-8.54156362909E-02	-5.68598096030E+01	-3.59376320518E+01	-1.42973589689E+02
5.11308056201E+08	-3.53109192412E+01	-1.63939003277E+02	-8.50473425768E-02	-5.68997039742E+01	-8.61208395913E-02	-5.68950768579E+01	-3.59240627112E+01	-1.42977060033E+02
5.11562229913E+08	-3.53200832394E+01	-1.64047581260E+02	-8.38047286983E-02	-5.69284515229E+01	-8.52893638026E-02	-5.69179662270E+01	-3.59516966106E+01	-1.42914802624E+02
5.11816529976E+08	-3.52772248468E+01	-1.64200721054E+02	-8.31044108446E-02	-5.69632319753E+01	-8.63626433508E-02	-5.69478066521E+01	-3.59100738501E+01	-1.43090006809E+02
5.12070956453E+08	-3.52740303108E+01	-1.64259265333E+02	-8.43447796210E-02	-5.69906891368E+01	-8.68238694233E-02	-5.69732274427E+01	-3.59139470355E+01	-1.43252358514E+02
5.12325509407E+08	-3.52344172741E+01	-1.64313015806E+02	-8.35857625712E-02	-5.70172501022E+01	-8.58263555019E-02	-5.70040329325E+01	-3.58972280579E+01	-1.43304050023E+02
5.12580188900E+08	-3.52591112504E+01	-1.64260941155E+02	-8.52649920108E-02	-5.70534646013E+01	-8.66065163445E-02	-5.70347367180E+01	-3.58797653847E+01	-1.43225114634E+02
5.12834994996E+08	-3.52180021402E+01	-1.64439227906E+02	-8.34583363862E-02	-5.70720741599E+01	-8.50132708980E-02	-5.70650257869E+01	-3.58626131527E+01	-1.43475401441E+02
5.13089927757E+08	-3.51843420077E+01	-1.64263346914E+02	-8.46190856405E-02	-5.71110099505E+01	-8.46826360871E-02	-5.70872096361E+01	-3.58439747267E+01	-1.43385071167E+02
5.13344987246E+08	-3.51721265886E+01	-1.64322803054E+02	-8.43194857939E-02	-5.71337869406E+01	-8.58534749263E-02	-5.71154933162E+01	-3.58415569078E+01	-1.43577389590E+02
5.13600173527E+08	-3.51922553523E+01	-1.64418117731E+02	-8.39799317150E-02	-5.71728606179E+01	-8.65294452237E-02	-5.71475864384E+01	-3.58716439476E+01	-1.43614442418E+02
5.13855486662E+08	-3.51493442586E+01	-1.64625456015E+02	-8.39408066276E-02	-5.71972592156E+01	-8.63406340599E-02	-5.71811439359E+01	-3.58105220865E+01	-1.43588021425E+02
5.14110926714E+08	-3.51373034773E+01	-1.64644617341E+02	-8.45249656986E-02	-5.72156385496E+01	-8.56836895123E-02	-5.71996779257E+01	-3.58175780676E+01	-1.43695448188E+02
5.14366493747E+08	-3.51451317498E+01	-1.64576564995E+02	-8.45380598869E-02	-5.72521023461E+01	-8.77109028742E-02	-5.72300531521E+01	-3.58110492394E+01	-1.43788139260E+02
5.14622187824E+08	-3.50980043683E+01	-1.64831275777E+02	-8.49814588517E-02	-5.72782012257E+01	-8.63445773707E-02	-5.72597596488E+01	-3.58032456362E+01	-1.43849944223E+02
5.14878009007E+08	-3.50632582656E+01	-1.64538820070E+02	-8.61756897161E-02	-5.73035746926E+01	-8.66165566943E-02	-5.72917341059E+01	-3.57653000850E+01	-1.43725188920E+02
5.15133957360E+08	-3.50677100516E+01	-1.64815815493E+02	-8.46662541841E-02	-5.73316523900E+01	-8.75211429445E-02	-5.73215699364E+01	-3.58138059466E+01	-1.43560218613E+02
5.15390032947E+08	-3.50537514792E+01	-1.64861441392E+02	-8.45501857003E-02	-5.73637909248E+01	-8.67830912803E-02	-5.73426491835E+01	-3.58042093799E+01	-1.43834137095E+02
5.15646235829E+08	-3.50123981964E+01	-1.65043263128E+02	-8.41323540021E-02	-5.73917241826E+01	-8.71373834812E-02	-5.73859019026E+01	-3.58078144785E+01	-1.43537805617E+02
5.15902566072E+08	-3.50181805948E+01	-1.64924497299E+02	-8.58089398732E-02	-5.74202518561E+01	-8.74686535864E-02	-5.74034503083E+01	-3.58075533420E+01	-1.43683501559E+02
5.16159023737E+08	-3.49869750291E+01	-1.64933471404E+02	-8.50769758611E-02	-5.74493081658E+01	-8.77216111688E-02	-5.74424786109E+01	-3.57658346590E+01	-1.43805141655E+02
5.16415608889E+08	-3.49733163669E+01	-1.64848102940E+02	-8.42816209480E-02	-5.74708241947E+01	-8.62076229400E-02	-5.74692116511E+01	-3.57777810018E+01	-1.43913949470E+02
5.16672321591E+08	-3.49692521607E+01	-1.64897902488E+02	-8.41706566567E-02	-5.75079867172E+01	-8.72463416085E-02	-5.74970780036E+01	-3.57621509397E+01	-1.43998373661E+02
5.16929161905E+08	-3.49261797076E+01	-1.65043204576E+02	-8.50488553875E-02	-5.75429168783E+01	-8.70525195339E-02	-5.75166876713E+01	-3.57136260346E+01	-1.43889920866E+02
5.17186129897E+08	-3.49222657174E+01	-1.64920585501E+02	-8.54940254268E-02	-5.75666361018E+01	-8.72083649170E-02	-5.75520829868E+01	-3.57287003739E+01	-1.43938718660E+02
5.17443225628E+08	-3.49105738567E+01	-1.65119850632E+02	-8.55738685245E-02	-5.75870662312E+01	-8.70550347244E-02	-5.75787263033E+01	-3.57173038479E+01	-1.44103578984E+02
5.17700449163E+08	-3.48887567737E+01	-1.65347478556E+02	-8.48950098402E-02	-5.76200557717E+01	-8.77275988050E-02	-5.76022185592E+01	-3.56894064386E+01	-1.44246735330E+02
5.17957800564E+08	-3.48443747130E+01	-1.65248813996E+02	-8.58029398545E-02	-5.76488794349E+01	-8.78543050762E-02	-5.76206619599E+01	-3.57088842205E+01	-1.44110038645E+02
5.18215279897E+08	-3.48608941448E+01	-1.65022188351E+02	-8.47493924896E-02	-5.76683304927E+01	-8.69146370273E-02	-5.76685599590E+01	-3.56806125730E+01	-1.44121858434E+02
5.18472887224E+08	-3.48228623766E+01	-1.65302375883E+02	-8.44661993310E-02	-5.77013721814E+01	-8.69220187843E-02	-5.76882144577E+01	-3.56587796223E+01	-1.44416315428E+02
5.18730622608E+08	-3.48042450343E+01	-1.65295654203E+02	-8.56155597998E-02	-5.77412589434E+01	-8.87467331497E-02	-5.77270614151E+01	-3.56641270908E+01	-1.43916217580E+02
5.18988486114E+08	-3.47932812816E+01	-1.65311240435E+02	-8.50148401362E-02	-5.77633657075E+01	-8.73367268815E-02	-5.77542436216E+01	-3.56357624281E+01	-1.44257276698E+02
5.19246477806E+08	-3.47717328766E+01	-1.65421537205E+02	-8.61309962146E-02	-5.77822106233E+01	-8.67057049025E-02	-5.77824260165E+01	-3.56171936817E+01	-1.44336361178E+02
5.19504597746E+08	-3.47321298493E+01	-1.65385198854E+02	-8.62680363213E-02	-5.78120123169E+01	-8.88740762351E-02	-5.78050600009E+01	-3.55932171912E+01	-1.44475832341E+02
5.19762845999E+08	-3.47543381911E+01	-1.65497496797E+02	-8.58473037557E-02	-5.78543578667E+01	-8.77116411462E-02	-5.78414374965E+01	-3.55749638788E+01	-1.44270596854E+02
5.20021222628E+08	-3.47039699505E+01	-1.65494676372E+02	-8.46286417704E-02	-5.78781575162E+01	-8.71059039637E-02	-5.78655627941E+01	-3.55814828085E+01	-1.44607336911E+02
5.20279727698E+08	-3.46881214142E+01	-1.65576257978E+02	-8.55776915183E-02	-5.79028043739E+01	-8.76440823695E-02	-5.78984212875E+01	-3.55396931710E+01	-1.44679545863E+02
5.20538361271E+08	-3.46599119317E+01	-1.65694894521E+02	-8.58793794946E-02	-5.79461208183E+01	-8.71275249527E-02	-5.79274950325E+01	-3.55580209914E+01	-1.44458421027E+02
5.20797123413E+08	-3.46337700202E+01	-1.65645870938E+02	-8.63949594734E-02	-5.79716956402E+01	-8.69105438754E-02	-5.79516359281E+01	-3.55270566570E+01	-1.44605257738E+02
5.21056014187E+08	-3.46183136244E+01	-1.65637128223E+02	-8.53103152545E-02	-5.79868063902E+01	-8.75109643874E-02	-5.79891538267E+01	-3.54916337176E+01	-1.44707688910E+02
5.21315033656E+08	-3.46134854612E+01	-1.65702000936E+02	-8.66191926111E-02	-5.80118639409E+01	-8.81684491528E-02	-5.80177018812E+01	-3.55208292654E+01	-1.44847079187E+02
5.21574181886E+08	-3.46005066890E+01	-1.65698304366E+02	-8.60248929140E-02	-5.80500985361E+01	-8.80597895162E-02	-5.80394360943E+01	-3.55065192082E+01	-1.44835116580E+02
5.21833458939E+08	-3.45642168990E+01	-1.65710477980E+02	-8.74871424192E-02	-5.80771911803E+01	-8.89908849520E-02	-5.80714694922E+01	-3.54530790439E+01	-1.44832187036E+02
5.22092864880E+08	-3.45616947669E+01	-1.65675472230E+02	-8.56988371091E-02	-5.81055622467E+01	-8.74985228621E-02	-5.80966061729E+01	-3.54331002798E+01	-1.44986534601E+02
5.22352399773E+08	-3.45348402438E+01	-1.65805805970E+02	-8.72175426774E-02	-5.81413916302E+01	-8.84534752360E-02	-5.81221542673E+01	-3.54049822504E+01	-1.45016992262E+02
5.22612063682E+08	-3.45470260999E+01	-1.65683231520E+02	-8.62938771247E-02	-5.81672932031E+01	-8.79553787784E-02	-5.81550004294E+01	-3.54201638305E+01	-1.45175568738E+02
5.22871856671E+08	-3.45259357696E+01	-1.65736800386E+02	-8.63569984194E-02	-5.81948519876E+01	-8.88189948273E-02	-5.81814628121E+01	-3.53792441737E+01	-1.45155878418E+02
5.23131778805E+08	-3.45038522579E+01	-1.65948345902E+02	-8.69728276287E-02	-5.82264349500E+01	-8.89686871594E-02	-5.82116943227E+01	-3.53933969378E+01	-1.45152639071E+02
5.23391830147E+08	-3.44612086009E+01	-1.65792373108E+02	-8.60223814429E-02	-5.82546795566E+01	-8.84103509054E-02	-5.82436675343E+01	-3.53691755367E+01	-1.45171380627E+02
5.23652010762E+08	-3.44349038322E+01	-1.65940358616E+02	-8.65441581446E-02	-5.82838270591E+01	-8.82650244744E-02	-5.82808238838E+01	-3.53403106121E+01	-1.45369839203E+02
5.23912320714E+08	-3.44247756336E+01	-1.65996026051E+02	-8.68005650854E-02	-5.83062913699E+01	-8.86410006282E-02	-5.83037372692E+01	-3.53223213575E+01	-1.45396049337E+02
5.24172760067E+08	-3.44138093220E+01	-1.65746737743E+02	-8.69430435423E-02	-5.83354206052E+01	-8.80839794431E-02	-5.83272141163E+01	-3.53223826505E+01	-1.45505289485E+02
5.24433328886E+08	-3.44040246359E+01	-1.66067920538E+02	-8.64937684884E-02	-5.83621254129E+01	-8.78451803121E-02	-5.83596668565E+01	-3.53010668904E+01	-1.45568655165E+02
5.24694027235E+08	-3.43645797045E+01	-1.65744397798E+02	-8.62093175049E-02	-5.83885791744E+01	-8.81304075356E-02	-5.83938636311E+01	-3.52714112542E+01	-1.45634843989E+02
5.24954855178E+08	-3.43237413319E+01	-1.65887615897E+02	-8.67972285967E-02	-5.84213528875E+01	-8.81906054527E-02	-5.84166929358E+01	-3.52784322168E+01	-1.45791432996E+02
5.25215812781E+08	-3.43179344162E+01	-1.65823065729E+02	-8.73928001374E-02	-5.84525965676E+01	-9.01027493932E-02	-5.84446359608E+01	-3.52680810564E+01	-1.45766564794E+02
5.25476900106E+08	-3.43245176183E+01	-1.65950585456E+02	-8.67305784916E-02	-5.84900784952E+01	-8.83569542461E-02	-5.84782052085E+01	-3.52088007905E+01	-1.45766732558E+02
5.25738117220E+08	-3.42881675312E+01	-1.65912144597E+02	-8.52642721362E-02	-5.85124840973E+01	-8.79597065975E-02	-5.84980795136E+01	-3.52120998300E+01	-1.45891518526E+02
5.25999464185E+08	-3.43001279269E+01	-1.65906582649E+02	-8.58624908722E-02	-5.85421927787E+01	-8.83131622987E-02	-5.85374479984E+01	-3.51722083085E+01	-1.45931926198E+02
5.26260941068E+08	-3.42625648143E+01	-1.66136654744E+02	-8.75720463586E-02	-5.85736844925E+01	-8.77604743840E-02	-5.85596440075E+01	-3.51762246774E+01	-1.46022895255E+02
5.26522547932E+08	-3.42518681519E+01	-1.66193981516E+02	-8.67641246175E-02	-5.85990559803E+01	-8.93761448039E-02	-5.85885114794E+01	-3.51649071882E+01	-1.46038902885E+02
5.26784284841E+08	-3.42284251243E+01	-1.66200438439E+02	-8.75017915693E-02	-5.86318923591E+01	-8.92617980446E-02	-5.86276259261E+01	-3.51103812682E+01	-1.46057711740E+02
5.27046151862E+08	-3.41787983855E+01	-1.66003452919E+02	-8.69111655253E-02	-5.86586564532E+01	-8.86785495705E-02	-5.86543475297E+01	-3.51028921059E+01	-1.46004435838E+02
5.27308149058E+08	-3.41810519075E+01	-1.66018316697E+02	-8.67277575730E-02	-5.86859745504E+01	-8.89719056531E-02	-5.86898241013E+01	-3.50659902135E+01	-1.46281566367E+02
5.27570276494E+08	-3.41690454997E+01	-1.66164821514E+02	-8.81238805261E-02	-5.87172577971E+01	-8.93090168654E-02	-5.87160465187E+01	-3.50910904334E+01	-1.46228820530E+02
5.27832534235E+08	-3.41168649687E+01	-1.66224799435E+02	-8.72985271435E-02	-5.87499636275E+01	-8.87457952681E-02	-5.87510367205E+01	-3.50645114682E+01	-1.46309175376E+02
5.28094922345E+08	-3.41184813296E+01	-1.66023044779E+02	-8.74191458790E-02	-5.87763473826E+01	-8.97992107619E-02	-5.87700682388E+01	-3.50037652813E+01	-1.46304184967E+02
5.28357440890E+08	-3.41242940737E+01	-1.66159110268E+02	-8.61212647356E-02	-5.88062506533E+01	-8.98731554142E-02	-5.87988548546E+01	-3.49972749138E+01	-1.46158423857E+02
5.28620089934E+08	-3.40873226311E+01	-1.66036456432E+02	-8.71169628806E-02	-5.88327323887E+01	-9.06084256600E-02	-5.88321171856E+01	-3.49961723055E+01	-1.46494467479E+02
5.28882869543E+08	-3.40614829265E+01	-1.65990626642E+02	-8.72337715754E-02	-5.88623349799E+01	-8.97536387268E-02	-5.88639527416E+01	-3.49563152275E+01	-1.46476412988E+02
5.29145779780E+08	-3.40648923421E+01	-1.66132364104E+02	-8.76145624688E-02	-5.88893199630E+01	-8.95985677266E-02	-5.88881025470E+01	-3.49225991212E+01	-1.46676964119E+02
5.29408820711E+08	-3.40361462567E+01	-1.66106659823E+02	-8.72107237326E-02	-5.89159338848E+01	-9.01657616714E-02	-5.89252860903E+01	-3.49345832655E+01	-1.46742986614E+02
