# Hz S DB R 50
! CMT, C2409, 19096212, 19.2.3/2
! Date: 3/29/2022 3:19:09 AM
! Data: Format (Calibration Info)
! Freq	S11:dB/Ang(F2)	S21:dB/Ang(F2)	S12:dB/Ang(F2)	S22:dB/Ang(F2)
5.00000000000E+08	-6.06026076182E-02	-3.97508593290E+01	-1.00768960564E+02	+5.24362555099E+01	-9.29856903832E+01	+8.87873733336E+01	-6.28438001658E-02	-3.83752455063E+01
5.00248552423E+08	-5.88711108485E-02	-3.97638262071E+01	-8.89166261100E+01	-1.02062908542E+02	-9.88298249722E+01	+1.42768413812E+02	-6.09602719501E-02	-3.83983595413E+01
5.00497228402E+08	-6.02255675083E-02	-3.97636610427E+01	-8.96795113818E+01	-1.09918997568E+02	-8.98858742235E+01	-2.59813964786E+00	-6.37659641689E-02	-3.84120587284E+01
5.00746028000E+08	-6.37776239602E-02	-3.97726176641E+01	-9.95259228570E+01	+8.72997043862E+01	-8.69783524464E+01	-1.23297405032E+02	-6.29597437227E-02	-3.84264515675E+01
5.00994951277E+08	-5.34584185362E-02	-3.98115430986E+01	-8.98399552056E+01	-5.21025785345E+01	-9.35977119947E+01	+2.44889930543E+01	-5.84848391673E-02	-3.84288946265E+01
5.01243998295E+08	-5.41254460450E-02	-3.98191364397E+01	-9.24326659141E+01	-4.24216265866E+01	-9.49246464591E+01	-3.58574677441E+00	-5.58837190206E-02	-3.84488535146E+01
5.01493169115E+08	-5.81608349233E-02	-3.98102601232E+01	-9.44630224104E+01	+2.93587167577E+01	-9.53290370767E+01	-1.12654937576E+02	-5.30824287397E-02	-3.84226081992E+01
5.01742463799E+08	-5.51976558131E-02	-3.98517284838E+01	-9.02008690095E+01	+8.93727200963E+01	-9.03024881009E+01	+8.81851682059E+01	-4.42510198603E-02	-3.85182845268E+01
5.01991882409E+08	-6.08171639860E-02	-3.99228810436E+01	-8.61815462308E+01	-1.76231426200E+02	-8.84055807484E+01	+1.79908613507E+02	-5.82801500063E-02	-3.85211731630E+01
5.02241425007E+08	-7.03000602291E-02	-3.99150223605E+01	-1.02317404476E+02	-6.25327772703E+01	-9.21034075306E+01	-8.65298703586E+01	-5.84261252037E-02	-3.85601187512E+01
5.02491091653E+08	-6.24177028251E-02	-3.99370865359E+01	-9.18979995433E+01	-1.71724318934E+02	-9.91707450555E+01	-3.06809853427E+01	-5.77114441664E-02	-3.85514579642E+01
5.02740882409E+08	-6.42513468153E-02	-3.99513847733E+01	-9.76788416773E+01	+2.55238986577E+01	-8.79384710200E+01	-1.48326387824E+02	-5.52189396479E-02	-3.86014737713E+01
5.02990797338E+08	-5.87999482214E-02	-3.99801243126E+01	-8.72682388602E+01	+7.22194986695E+01	-9.20833761893E+01	+1.54701712989E+02	-6.12521173777E-02	-3.85845555867E+01
5.03240836501E+08	-6.63526374615E-02	-3.99432389700E+01	-1.06897153344E+02	-4.03698561446E+01	-9.22973925084E+01	+1.40351204325E+02	-6.04186908195E-02	-3.85989561729E+01
5.03490999959E+08	-6.17291847073E-02	-4.00053639765E+01	-9.56473494468E+01	+1.33452406463E+02	-8.94295553923E+01	-1.33775110530E+02	-5.97245285790E-02	-3.86183225020E+01
5.03741287775E+08	-6.73311974889E-02	-4.00085229915E+01	-8.58236563548E+01	-1.15561989861E+02	-9.21000068675E+01	+1.49179565499E+02	-5.43874889294E-02	-3.86374990507E+01
5.03991700010E+08	-6.11370267516E-02	-4.00047898166E+01	-9.68246556574E+01	-2.90194024321E+01	-1.14563874028E+02	-1.24805138987E+02	-5.50448850412E-02	-3.86517654259E+01
5.04242236726E+08	-6.42066177406E-02	-4.00548579190E+01	-9.24191308529E+01	-4.30819563057E+01	-8.60123370279E+01	-3.57544161287E+01	-6.47354788557E-02	-3.87221649611E+01
5.04492897985E+08	-6.07999982723E-02	-4.00774344874E+01	-9.13615238999E+01	-4.74664113847E+01	-8.92931048930E+01	+1.13537548771E+02	-6.08901208781E-02	-3.87519331539E+01
5.04743683850E+08	-5.94623611444E-02	-4.00751394927E+01	-8.80890663804E+01	-6.38434275238E+01	-9.13972739677E+01	-1.47029912469E+02	-5.68152552641E-02	-3.87178131815E+01
5.04994594381E+08	-6.04797061996E-02	-4.01453236651E+01	-9.18425759742E+01	-9.37123621322E+01	-9.24579650035E+01	-3.99597159634E+01	-6.09510893691E-02	-3.87590655392E+01
5.05245629641E+08	-6.27810955860E-02	-4.01108068851E+01	-9.39030948788E+01	+1.23838157182E+02	-8.96724006788E+01	+1.11389197277E+01	-5.76461507368E-02	-3.87552195740E+01
5.05496789691E+08	-6.29724942805E-02	-4.01039602322E+01	-9.08921532489E+01	-9.63008148085E+01	-8.89623861615E+01	+4.57426818709E+01	-6.17866453561E-02	-3.87723970480E+01
5.05748074595E+08	-6.57532928327E-02	-4.01511517757E+01	-1.04519896374E+02	+5.87148739569E+01	-9.44002525126E+01	-2.93892672042E+01	-6.05769524770E-02	-3.88158564962E+01
5.05999484413E+08	-6.29241663667E-02	-4.01705737467E+01	-8.60616778404E+01	-1.40353819300E+02	-9.08316220182E+01	+7.86334015760E+01	-5.65462015698E-02	-3.88003970589E+01
5.06251019209E+08	-6.34801775812E-02	-4.02261421052E+01	-9.55431789121E+01	+1.47729934898E+02	-9.29558812803E+01	+9.53815794976E+01	-6.63753215772E-02	-3.88275972898E+01
5.06502679044E+08	-5.97508546043E-02	-4.02472332377E+01	-9.22659276033E+01	-1.75214497292E+02	-8.94894606267E+01	-1.28690388105E+02	-6.82891221781E-02	-3.88684400385E+01
5.06754463980E+08	-5.79468131256E-02	-4.02842726328E+01	-9.47706292403E+01	+4.17381519464E+01	-9.09962877193E+01	+1.26997893731E+02	-5.85028889520E-02	-3.88635995916E+01
5.07006374079E+08	-6.49500732125E-02	-4.02561467716E+01	-9.68880779225E+01	+1.78911586025E+02	-1.05125195226E+02	-4.73090527166E+01	-6.15527478741E-02	-3.88863675605E+01
5.07258409405E+08	-6.85789534295E-02	-4.02628773993E+01	-9.60008164416E+01	-4.02002076541E+01	-9.46903891702E+01	-8.60205313093E+01	-5.65679152875E-02	-3.89042319865E+01
5.07510570018E+08	-6.02108441743E-02	-4.02982183759E+01	-8.58748463196E+01	-7.92287500521E+01	-9.34026559669E+01	-7.29947422458E+01	-6.30529922840E-02	-3.89314151741E+01
5.07762855982E+08	-6.03284907774E-02	-4.03457605114E+01	-9.10328545559E+01	-5.45150773357E+00	-9.12586028587E+01	-3.33514709044E+01	-5.99903157836E-02	-3.89210075870E+01
5.08015267358E+08	-6.13641991698E-02	-4.03145176651E+01	-8.59031182529E+01	+1.53985025883E+02	-8.53328993764E+01	-7.16848081565E+01	-5.66969269452E-02	-3.89551644402E+01
5.08267804209E+08	-6.51976405686E-02	-4.03611926221E+01	-9.18224028961E+01	-1.41230738814E+02	-8.97226490661E+01	+7.26949522464E+01	-6.06531480153E-02	-3.89923615993E+01
5.08520466597E+08	-6.33004516073E-02	-4.03882007842E+01	-1.00376931686E+02	-1.04148132999E+02	-9.19259436218E+01	-8.34128817305E+01	-6.42603369566E-02	-3.89855514723E+01
5.08773254585E+08	-6.84527886728E-02	-4.04014869309E+01	-9.71389638181E+01	-2.52805706437E+01	-9.01981575643E+01	-1.63193921696E+02	-6.06940299350E-02	-3.89965067967E+01
5.09026168235E+08	-6.01820116967E-02	-4.04119332884E+01	-9.16497432877E+01	+9.82327083577E+01	-8.72672980609E+01	+1.52258668522E+02	-6.09439128146E-02	-3.90448112941E+01
5.09279207610E+08	-6.05482538924E-02	-4.04217211623E+01	-9.13413694858E+01	-1.06115873537E+01	-8.50203127589E+01	+9.04538422358E+01	-5.97212505483E-02	-3.90079774009E+01
5.09532372772E+08	-6.45836681335E-02	-4.04459038160E+01	-9.11704764831E+01	+4.39499153438E+01	-8.92024547499E+01	+1.05693993759E+02	-5.85352978743E-02	-3.90865475192E+01
5.09785663784E+08	-6.69241682329E-02	-4.04686630762E+01	-9.41570978451E+01	-1.17508936652E+02	-8.91758954936E+01	+7.51602985873E+01	-6.57384451382E-02	-3.91315860312E+01
5.10039080707E+08	-5.70008084576E-02	-4.04907423659E+01	-8.77622130028E+01	-1.37420740846E+01	-9.96526699289E+01	+1.77677700278E+01	-6.66528108859E-02	-3.91351275700E+01
5.10292623606E+08	-6.29777680469E-02	-4.05577097191E+01	-8.77713231479E+01	-1.25094738597E+02	-9.57420405978E+01	-4.39276075291E-01	-5.87355332612E-02	-3.91191186944E+01
5.10546292542E+08	-6.66969634180E-02	-4.05126313075E+01	-9.59355356907E+01	+4.74826542393E+01	-9.32162561487E+01	-1.45691326715E+02	-6.04494403032E-02	-3.91817811923E+01
5.10800087578E+08	-6.45717168964E-02	-4.05890458717E+01	-9.17709051014E+01	-1.22744091443E+02	-9.36236488406E+01	+1.30654925550E+02	-6.73498849954E-02	-3.91486273247E+01
5.11054008776E+08	-6.51805221167E-02	-4.05744368955E+01	-8.83733788384E+01	-4.83104844116E+01	-8.68536616392E+01	+5.66159791088E+01	-6.42187273170E-02	-3.91658147113E+01
5.11308056201E+08	-6.95401388748E-02	-4.06174682291E+01	-9.12371131669E+01	+1.10938001033E+02	-1.07077982855E+02	+9.81609803403E+01	-5.65015253331E-02	-3.92101600340E+01
5.11562229913E+08	-6.71448218217E-02	-4.06017581279E+01	-9.16568535820E+01	-8.98708463263E+01	-9.76873707852E+01	-1.00876134543E+02	-7.11605263426E-02	-3.92511091467E+01
5.11816529976E+08	-6.81752459080E-02	-4.06642595743E+01	-8.78571902051E+01	-1.25714074212E+02	-1.11463208809E+02	+1.78300751271E+02	-6.24216646210E-02	-3.92970270093E+01
5.12070956453E+08	-6.69149635580E-02	-4.06657020275E+01	-9.03827788345E+01	-4.70279747478E+01	-9.62754120390E+01	-1.24346456762E+02	-6.30589917131E-02	-3.92645608210E+01
5.12325509407E+08	-6.24812636377E-02	-4.06764441323E+01	-9.63531934354E+01	+1.11106862301E+02	-9.46885974529E+01	+2.58019586402E+01	-5.87239496397E-02	-3.93112680394E+01
5.12580188900E+08	-6.47824454912E-02	-4.07175410629E+01	-9.89410001803E+01	-3.62299031287E+01	-8.67088051626E+01	-1.31154416052E+02	-6.27136546882E-02	-3.93132256870E+01
5.12834994996E+08	-5.82594306823E-02	-4.07423822876E+01	-9.17776241281E+01	+2.15024706482E+01	-1.07648378180E+02	-1.36530971485E+02	-5.98938377538E-02	-3.92872980069E+01
5.13089927757E+08	-5.73141997970E-02	-4.07598145741E+01	-9.49408569228E+01	+1.41617637180E+02	-9.43944922657E+01	-6.67165781084E+01	-6.56085974728E-02	-3.93246817165E+01
5.13344987246E+08	-6.55241667820E-02	-4.08186763379E+01	-8.95926837807E+01	+1.02175517633E+01	-9.79828113002E+01	-4.41154211004E+01	-6.17265309386E-02	-3.93607304832E+01
5.13600173527E+08	-6.39849743155E-02	-4.08201909685E+01	-8.73848967013E+01	-1.27754509821E+01	-9.76895671340E+01	-2.78058588884E+01	-7.32132396946E-02	-3.93442425331E+01
5.13855486662E+08	-6.37641237531E-02	-4.08047263509E+01	-9.15718463089E+01	-8.28517259906E+01	-9.38308817956E+01	+7.38046804276E+01	-5.92642659344E-02	-3.93839111222E+01
5.14110926714E+08	-6.42485717093E-02	-4.08180100363E+01	-8.85872848450E+01	-6.51502523363E+01	-9.15688803363E+01	+1.65756300299E+02	-6.29031251527E-02	-3.93762677470E+01
5.14366493747E+08	-6.74251466727E-02	-4.08690869471E+01	-9.36263443143E+01	+1.60967094680E+02	-9.02527208993E+01	+1.29786116820E+01	-6.89759688033E-02	-3.94141972491E+01
5.14622187824E+08	-6.69000569730E-02	-4.08932413114E+01	-8.98136194575E+01	+1.75433204262E+02	-8.85119477356E+01	+1.77304979575E+02	-6.46206619878E-02	-3.94678678109E+01
5.14878009007E+08	-6.09165343089E-02	-4.09136706671E+01	-8.85458489978E+01	-4.09091842984E+01	-8.61686941905E+01	+1.42400452743E+02	-6.00779099171E-02	-3.94778852361E+01
5.15133957360E+08	-5.95361363260E-02	-4.09365765487E+01	-9.02645522728E+01	+4.77136611142E+01	-1.06560743060E+02	+1.01706394173E+02	-6.36993599622E-02	-3.94803718636E+01
5.15390032947E+08	-6.46243308318E-02	-4.09276489342E+01	-9.56547699939E+01	-1.41409397085E+00	-8.82842041802E+01	-7.03371611318E+01	-6.14519903561E-02	-3.94957405376E+01
5.15646235829E+08	-6.59347140461E-02	-4.09508257817E+01	-9.48028047731E+01	-1.89785897451E+01	-9.19263143680E+01	-1.03029115045E+02	-6.16778402346E-02	-3.95643433241E+01
5.15902566072E+08	-6.17323131688E-02	-4.10107621191E+01	-9.29399066126E+01	-1.56498094843E+02	-9.21641008655E+01	+1.49195035708E+01	-6.04608732147E-02	-3.95550039437E+01
5.16159023737E+08	-6.02225238762E-02	-4.09859901206E+01	-1.00068520465E+02	+9.21565590983E+01	-8.62407503811E+01	-4.07977425291E+01	-6.18679364345E-02	-3.95750343256E+01
5.16415608889E+08	-6.72290097291E-02	-4.10036770240E+01	-9.17847093675E+01	-1.34325425000E+02	-8.86183892851E+01	-6.30457116040E+01	-6.94529745061E-02	-3.96267789752E+01
5.16672321591E+08	-6.16180432244E-02	-4.10241524207E+01	-9.44718750703E+01	-8.64896788401E+01	-9.08551554955E+01	-8.79117168304E+01	-6.02861873550E-02	-3.95935794329E+01
5.16929161905E+08	-6.86797405744E-02	-4.10621369592E+01	-9.10519879369E+01	+6.95302891937E+01	-9.83838377024E+01	-6.16378218541E+01	-6.51933654120E-02	-3.96484199546E+01
5.17186129897E+08	-6.02192517620E-02	-4.10587194541E+01	-9.23734540919E+01	-8.55098404261E+01	-9.81603118362E+01	-1.44937957554E+02	-6.61575848783E-02	-3.96384877280E+01
5.17443225628E+08	-6.68364254897E-02	-4.11258298332E+01	-8.60081922886E+01	-1.38093436300E+02	-9.11852165324E+01	-1.12654591012E+02	-6.19701926600E-02	-3.96538087952E+01
5.17700449163E+08	-6.24247754915E-02	-4.11400253660E+01	-8.90337517338E+01	-7.74714914350E+01	-9.05193250652E+01	-2.71572219782E+01	-6.54431824706E-02	-3.96796431007E+01
5.17957800564E+08	-6.65485975385E-02	-4.11172635867E+01	-9.44431876382E+01	+7.23213349593E+01	-9.60204730921E+01	-7.99526305868E+01	-6.54366191285E-02	-3.96991869398E+01
5.18215279897E+08	-5.90462281573E-02	-4.11485288191E+01	-1.01315509982E+02	-7.51465622842E+01	-1.04453680867E+02	+3.13299025661E+01	-6.99587998567E-02	-3.97347146092E+01
5.18472887224E+08	-6.40575049275E-02	-4.11693922286E+01	-9.87802785546E+01	+1.35492483233E+02	-9.29654711520E+01	-7.19499214860E+01	-6.97073377053E-02	-3.97270318410E+01
5.18730622608E+08	-6.60848209964E-02	-4.12221807444E+01	-9.45884971211E+01	+8.88490749313E+00	-8.79627182188E+01	+1.32204260099E+02	-6.41695040968E-02	-3.97521460917E+01
5.18988486114E+08	-6.58622278815E-02	-4.12224158068E+01	-9.05636200440E+01	+1.08488727407E+02	-9.84075137448E+01	-1.06224092441E+02	-6.56485690494E-02	-3.97497225074E+01
5.19246477806E+08	-6.91963623081E-02	-4.12226581691E+01	-8.78879978524E+01	+5.32257353805E+01	-9.00956703049E+01	-1.14551112710E+02	-7.05242628353E-02	-3.98047094548E+01
5.19504597746E+08	-6.48793720901E-02	-4.13013755171E+01	-8.52271676099E+01	-1.70361095544E+02	-8.88493193107E+01	-1.46167518093E+02	-6.55239514503E-02	-3.98416467303E+01
5.19762845999E+08	-6.58000101898E-02	-4.12522633466E+01	-8.70524119919E+01	+1.46436459903E+02	-8.76145489117E+01	+1.21574762014E+02	-6.32043919524E-02	-3.98505175330E+01
5.20021222628E+08	-6.94243842612E-02	-4.13256003053E+01	-9.34793557067E+01	-2.84184370018E+01	-9.20992938755E+01	+3.32783621093E+01	-6.48024450833E-02	-3.99006411543E+01
5.20279727698E+08	-6.60025176535E-02	-4.13438318103E+01	-9.06702675316E+01	-1.17309704870E+02	-9.06300028741E+01	+9.02312331705E+00	-6.60240905812E-02	-3.98585616279E+01
5.20538361271E+08	-6.86010447612E-02	-4.13561709765E+01	-8.99378150779E+01	+6.35232635959E+01	-1.03874774246E+02	-1.63618024933E+02	-6.65111383374E-02	-3.99019361065E+01
5.20797123413E+08	-6.34729072785E-02	-4.13843148013E+01	-9.25260953373E+01	-4.50532754283E+01	-8.87916786108E+01	+1.78112084633E+01	-6.40274750043E-02	-3.99349346710E+01
5.21056014187E+08	-6.95456972752E-02	-4.14437552731E+01	-9.91289415664E+01	-1.49722915949E+02	-9.49527935074E+01	-1.45159172936E+02	-6.35348350008E-02	-3.99690077230E+01
5.21315033656E+08	-6.52715316235E-02	-4.14206164476E+01	-9.53778530702E+01	-8.67264207437E+01	-1.01897775466E+02	-2.05776176049E+01	-6.54913177654E-02	-3.99721067934E+01
5.21574181886E+08	-7.04933404158E-02	-4.14566222126E+01	-9.55565628223E+01	-1.27399886681E+02	-9.51147504532E+01	-1.34927146907E+02	-6.68658315047E-02	-4.00053118327E+01
5.21833458939E+08	-6.49791992075E-02	-4.14750815636E+01	-8.63208225902E+01	-1.94870309966E+01	-9.38910445154E+01	+1.34946536853E+02	-6.64972245131E-02	-3.99982357928E+01
5.22092864880E+08	-6.82715323232E-02	-4.15033956116E+01	-9.46832421612E+01	-2.39937171265E+01	-8.75924839855E+01	-1.60912866838E+02	-6.51338352327E-02	-4.00214016979E+01
5.22352399773E+08	-6.70735903254E-02	-4.15377054776E+01	-1.00535004396E+02	+6.51514647112E+01	-9.16646215963E+01	+1.16309095803E+02	-6.48528906504E-02	-4.00096602656E+01
5.22612063682E+08	-6.66613304442E-02	-4.15509390232E+01	-9.82654689961E+01	-5.63703530617E+01	-8.87827239125E+01	+3.31817243814E+01	-6.43592763683E-02	-4.00454383577E+01
5.22871856671E+08	-6.29694773641E-02	-4.15766051362E+01	-9.49427533113E+01	-8.56446968968E+01	-8.78172994383E+01	+1.88434957874E+01	-7.09955167988E-02	-4.00730767307E+01
5.23131778805E+08	-6.77324079637E-02	-4.15422821529E+01	-9.46304223432E+01	+7.49788492051E+01	-9.46154012229E+01	+1.07028593507E+02	-6.58937351637E-02	-4.00783970916E+01
5.23391830147E+08	-6.67332915710E-02	-4.16324427195E+01	-9.44261970167E+01	+5.01214152751E+01	-9.44951881705E+01	-1.64268417295E+02	-6.90078114503E-02	-4.00569707987E+01
5.23652010762E+08	-6.98337992461E-02	-4.15928205151E+01	-9.47227154977E+01	+4.66826194177E+01	-9.64340973892E+01	+4.79467119588E+00	-7.17542120445E-02	-4.01204905071E+01
5.23912320714E+08	-6.73020185412E-02	-4.16358875713E+01	-9.99588557592E+01	-9.30304004799E+01	-9.18017701696E+01	+1.38706190251E+01	-7.15776360187E-02	-4.01482986855E+01
5.24172760067E+08	-6.31309014136E-02	-4.16672826530E+01	-9.05877193814E+01	+6.22087065847E+01	-9.00177669379E+01	-1.50815351223E+02	-7.26727257909E-02	-4.01589241411E+01
5.24433328886E+08	-7.12198666147E-02	-4.16499333152E+01	-9.06306512293E+01	-6.83819796025E+01	-9.11263207663E+01	+1.64435418514E+02	-7.20533077864E-02	-4.02007338275E+01
5.24694027235E+08	-6.39059095153E-02	-4.16898408215E+01	-8.79585139562E+01	-1.71510205931E+02	-9.10904681981E+01	-2.99521537590E+00	-6.66402706854E-02	-4.02220164148E+01
5.24954855178E+08	-6.82362236082E-02	-4.17224013192E+01	-9.39622863535E+01	+5.53275271192E+01	-9.08828468551E+01	+1.16040474556E+02	-7.13734657722E-02	-4.02177968302E+01
5.25215812781E+08	-6.96394032834E-02	-4.17565485634E+01	-8.56237532573E+01	+8.13864936005E+01	-8.98542939448E+01	-2.28466302862E+01	-7.19313901904E-02	-4.02519932157E+01
5.25476900106E+08	-7.41080880160E-02	-4.17241256220E+01	-8.89055558079E+01	-1.60566687152E+02	-9.97297509790E+01	-8.21146413769E+01	-7.10105503636E-02	-4.02980703671E+01
5.25738117220E+08	-6.30750088398E-02	-4.17767032335E+01	-9.76195673564E+01	-2.37045883102E+01	-9.62977890381E+01	+1.01641655357E+02	-7.83528659001E-02	-4.02588902301E+01
5.25999464185E+08	-6.83999957595E-02	-4.17425245712E+01	-9.33820992457E+01	+5.46617377746E+01	-8.98363455444E+01	+1.57590079588E+02	-6.63428082229E-02	-4.03027168519E+01
5.26260941068E+08	-7.71401337145E-02	-4.18049488361E+01	-9.01824176137E+01	+6.72660155112E+01	-9.63406435704E+01	+1.58341567107E+02	-6.90271279114E-02	-4.03423739705E+01
5.26522547932E+08	-7.24950404796E-02	-4.18046103487E+01	-9.64415979595E+01	+1.42951647271E+01	-8.93735802961E+01	-1.76292697995E+02	-6.57509520843E-02	-4.03557608058E+01
5.26784284841E+08	-6.34956857992E-02	-4.19034605075E+01	-9.53918834133E+01	-9.15786854476E+01	-1.03013894327E+02	+9.75524353999E+01	-6.81743575164E-02	-4.03630286047E+01
5.27046151862E+08	-6.85198942566E-02	-4.18763627887E+01	-9.18534441433E+01	-6.41778053144E+00	-8.55516041999E+01	+1.39718170897E+02	-6.59986299087E-02	-4.03784430941E+01
5.27308149058E+08	-6.77360297847E-02	-4.19374201735E+01	-9.08400368582E+01	-1.41449636044E+02	-9.52839489651E+01	+9.47052244435E+01	-7.07592728769E-02	-4.03752405626E+01
5.27570276494E+08	-6.86566601256E-02	-4.19771404325E+01	-9.39851706672E+01	+3.99950296795E+01	-9.08132233492E+01	+1.11323300416E+01	-6.79340406225E-02	-4.04906875473E+01
5.27832534235E+08	-7.11690369436E-02	-4.19437950436E+01	-1.03403391859E+02	-3.94833461229E+01	-9.07013102846E+01	+7.37095472506E+01	-6.66127234179E-02	-4.04453562079E+01
5.28094922345E+08	-7.16420826034E-02	-4.19619347501E+01	-8.63735532996E+01	-1.45157192141E+01	-9.15100935422E+01	+1.42712796092E+02	-6.87661345208E-02	-4.04113369667E+01
5.28357440890E+08	-6.26669620973E-02	-4.20335950994E+01	-9.23842866688E+01	+1.48435247316E+02	-9.98147143111E+01	+1.83631158079E+01	-6.37541385526E-02	-4.04962620639E+01
5.28620089934E+08	-7.65207032262E-02	-4.20395380455E+01	-9.50751899761E+01	-1.52704013622E+02	-9.03901528051E+01	+8.09300621430E+01	-7.54523343419E-02	-4.04943684538E+01
5.28882869543E+08	-6.17995842749E-02	-4.20335364381E+01	-8.98842248828E+01	+5.35304988592E+01	-8.55622742783E+01	-1.37744915055E+02	-7.35270156704E-02	-4.05048585948E+01
5.29145779780E+08	-6.83464112479E-02	-4.21124606017E+01	-9.25034002508E+01	+1.49652539239E+02	-9.27088335953E+01	-1.14207863520E+02	-7.48580832653E-02	-4.05504922454E+01
5.29408820711E+08	-6.86083215944E-02	-4.21093596819E+01	-1.01667193927E+02	-8.54792788145E+00	-9.87909465529E+01	-1.90539783711E+01	-6.59559452876E-02	-4.05575712689E+01
